# vsim -sv_seed 545441 -coverage -coveranalysis -voptargs="+acc" -assertdebug -c testbench -do "coverage save -codeAll -cvg -onexit full_100M_normal_uni_test_545441.ucdb; log -r /*;run -all;" -l full_100M_normal_uni_test_545441.log "+UVM_TESTNAME=full_100M_normal_uni_test" "+UVM_VERBOSITY=UVM_HIGH" 
# Start time: 13:40:16 on Jun 20,2026
# Loading /tmp/venus@nus-fedora_dpi_7412/linux_x86_64_gcc-15/export_tramp.so
# ** Note: (vsim-8009) Loading existing optimized design _opt1
# //  Questa Sim-64
# //  Version 2021.2_1 linux_x86_64 May 15 2021
# //
# //  Copyright 1991-2021 Mentor Graphics Corporation
# //  All Rights Reserved.
# //
# //  QuestaSim and its associated documentation contain trade
# //  secrets and commercial or financial information that are the property of
# //  Mentor Graphics Corporation and are privileged, confidential,
# //  and exempt from disclosure under the Freedom of Information Act,
# //  5 U.S.C. Section 552. Furthermore, this information
# //  is prohibited from disclosure under the Trade Secrets Act,
# //  18 U.S.C. Section 1905.
# //
# ** Note: (vsim-8785) UVM-aware debugging capabilities will be disabled since no compiled "questa_uvm_pkg" can be found.
# This also means that later if you turn on UVM-aware debugging your debug simulations may have
# different random seeds from your non-debug simulations.
# Loading sv_std.std
# Loading work.ahb_if(fast)
# Loading work.phy_if(fast)
# Loading work.uvm_pkg(fast)
# Loading work.ahb_pkg(fast)
# Loading work.phy_pkg(fast)
# Loading work.seq_pkg(fast)
# Loading work.eth_register_pkg(fast)
# Loading work.eth_regmodel_pkg(fast)
# Loading work.env_pkg(fast)
# Loading work.test_pkg(fast)
# Loading work.testbench(fast)
# Loading work.ahb_if(fast__2)
# Loading work.phy_if(fast__2)
# Loading work.eth_top(fast)
# Loading work.eth_ahb_slave(fast)
# Loading work.eth_register(fast)
# Loading work.eth_sync_level(fast)
# Loading work.eth_sync_level(fast__1)
# Loading work.eth_sync_level(fast__2)
# Loading work.eth_sync_level(fast__3)
# Loading work.eth_tx_frame_buffer(fast)
# Loading work.eth_cdc_pulse(fast)
# Loading work.eth_sync_level(fast__4)
# Loading work.eth_tx_buffer_ctrl(fast)
# Loading work.eth_rx_mac(fast)
# Loading work.eth_rx_controller(fast)
# Loading work.eth_rx_cnt(fast)
# Loading work.eth_crc(fast)
# Loading work.eth_rx_addr_check(fast)
# Loading work.eth_rx_buffer_ctrl(fast)
# Loading work.eth_rx_frame_buffer(fast)
# Loading work.eth_sync_level(fast__5)
# Loading work.eth_rx_pause(fast)
# Loading work.eth_tx_pause(fast)
# Loading work.eth_tx_mac(fast)
# Loading work.eth_tx_cnt(fast)
# Loading work.eth_tx_controller(fast)
# Loading work.eth_backoff_random(fast)
# Compiling /tmp/venus@nus-fedora_dpi_7412/linux_x86_64_gcc-15/exportwrapper.c
# Loading /tmp/venus@nus-fedora_dpi_7412/linux_x86_64_gcc-15/vsim_auto_compile.so
# coverage save -codeAll -cvg -onexit full_100M_normal_uni_test_545441.ucdb
#  log -r /*
# run -all
# UVM_INFO /home/venus/QuestaSim/uvm-1.2/src/base/uvm_root.svh(392) @ 0: reporter [UVM/RELNOTES] 
# ----------------------------------------------------------------
# UVM-1.2
# (C) 2007-2014 Mentor Graphics Corporation
# (C) 2007-2014 Cadence Design Systems, Inc.
# (C) 2006-2014 Synopsys, Inc.
# (C) 2011-2013 Cypress Semiconductor Corp.
# (C) 2013-2014 NVIDIA Corporation
# ----------------------------------------------------------------
# 
#   ***********       IMPORTANT RELEASE NOTES         ************
# 
#   You are using a version of the UVM library that has been compiled
#   with `UVM_NO_DEPRECATED undefined.
#   See http://www.eda.org/svdb/view.php?id=3313 for more details.
# 
#   You are using a version of the UVM library that has been compiled
#   with `UVM_OBJECT_DO_NOT_NEED_CONSTRUCTOR undefined.
#   See http://www.eda.org/svdb/view.php?id=3770 for more details.
# 
#       (Specify +UVM_NO_RELNOTES to turn off this notice)
# 
# UVM_INFO /home/venus/QuestaSim/uvm-1.2/src/base/uvm_root.svh(453) @ 0: reporter [NO_DPI_TSTNAME] UVM_NO_DPI defined--getting UVM_TESTNAME directly, without DPI
# UVM_INFO @ 0: reporter [RNTST] Running test full_100M_normal_uni_test...
# UVM_INFO ./../testcases/eth_base_test.sv(220) @ 0: uvm_test_top [build_phase] Entered...
# UVM_INFO ./../testcases/eth_base_test.sv(237) @ 0: uvm_test_top [build_phase] Exitting...
# UVM_INFO ./../tb/eth_environment.sv(24) @ 0: uvm_test_top.env [build_phase] Entered...
# UVM_INFO ./../tb/eth_environment.sv(52) @ 0: uvm_test_top.env [build_phase] Exitting...
# UVM_INFO ./../vip/ahb_vip/ahb_agent.sv(19) @ 0: uvm_test_top.env.ahb_agt [ahb_agent] Active agent is configued
# UVM_INFO ./../vip/phy_vip/phy_agent.sv(25) @ 0: uvm_test_top.env.phy_agt [phy_agent] Active agent is configured
# UVM_INFO ./../tb/eth_environment.sv(57) @ 0: uvm_test_top.env [connect_phase] Entered...
# UVM_INFO ./../tb/eth_environment.sv(70) @ 0: uvm_test_top.env [connect_phase] Exiting...
# UVM_INFO /home/venus/QuestaSim/uvm-1.2/src/base/uvm_root.svh(579) @ 0: reporter [UVMTOP] UVM testbench topology:
# ------------------------------------------------------------------------------
# Name                         Type                                  Size  Value
# ------------------------------------------------------------------------------
# uvm_test_top                 full_100M_normal_uni_test             -     @347 
#   env                        eth_environment                       -     @364 
#     ahb_agt                  ahb_agent                             -     @390 
#       driver                 ahb_driver                            -     @552 
#         rsp_port             uvm_analysis_port                     -     @571 
#         seq_item_port        uvm_seq_item_pull_port                -     @561 
#       monitor                ahb_monitor                           -     @718 
#         ahb_observe_port     uvm_analysis_port                     -     @731 
#       sequencer              ahb_sequencer                         -     @581 
#         rsp_export           uvm_analysis_export                   -     @590 
#         seq_item_export      uvm_seq_item_pull_imp                 -     @708 
#         arbitration_queue    array                                 0     -    
#         lock_queue           array                                 0     -    
#         num_last_reqs        integral                              32    'd1  
#         num_last_rsps        integral                              32    'd1  
#     ahb_predictor            uvm_reg_predictor #(ahb_transaction)  -     @509 
#       bus_in                 uvm_analysis_imp                      -     @518 
#       reg_ap                 uvm_analysis_port                     -     @528 
#     phy_agt                  phy_agent                             -     @399 
#       driver                 phy_driver                            -     @889 
#         rsp_port             uvm_analysis_port                     -     @908 
#         seq_item_port        uvm_seq_item_pull_port                -     @898 
#       monitor                phy_monitor                           -     @922 
#         phy_observe_port_rx  uvm_analysis_port                     -     @941 
#         phy_observe_port_tx  uvm_analysis_port                     -     @931 
#       sequencer              phy_sequencer                         -     @752 
#         rsp_export           uvm_analysis_export                   -     @761 
#         seq_item_export      uvm_seq_item_pull_imp                 -     @879 
#         arbitration_queue    array                                 0     -    
#         lock_queue           array                                 0     -    
#         num_last_reqs        integral                              32    'd1  
#         num_last_rsps        integral                              32    'd1  
#     sb                       eth_scoreboard                        -     @408 
#       ahb_export             uvm_analysis_imp_ahb                  -     @983 
#       phy_rx_export          uvm_analysis_imp_phy_rx               -     @973 
#       phy_tx_export          uvm_analysis_imp_phy_tx               -     @963 
# ------------------------------------------------------------------------------
# 
# UVM_INFO /home/venus/QuestaSim/uvm-1.2/src/base/uvm_traversal.svh(279) @ 0: reporter [UVM/COMP/NAMECHECK] This implementation of the component name checks requires DPI to be enabled
# UVM_INFO ./../testcases/eth_base_test.sv(137) @ 0: uvm_test_top [full_100M_normal_uni_test] burst_write_reg_range: start=0x0 end=0x10 beats=5 auto_fixed_burst=1
# UVM_INFO ./../vip/phy_vip/phy_driver.sv(62) @ 0: uvm_test_top.env.phy_agt.driver [run_phase] ENTERED...
# UVM_INFO ./../sequences/eth_ahb_burst_write_seq.sv(99) @ 105000: uvm_test_top.env.ahb_agt.sequencer@@burst_seq [eth_ahb_burst_write_seq] AHB burst write chunk: addr=0x0 beats=4 burst=HBURST_INCR4
# UVM_INFO ./../vip/ahb_vip/ahb_driver.sv(28) @ 105000: uvm_test_top.env.ahb_agt.driver [run_phase] Start WRITE transaction - ADRRESS: 0x0
# UVM_INFO ./../vip/ahb_vip/ahb_monitor.sv(135) @ 125000: uvm_test_top.env.ahb_agt.monitor [ahb_monitor] Send trans from monitor to scoreboard: 
# ---------------------------------------------------
# Name           Type             Size  Value        
# ---------------------------------------------------
# trans          ahb_transaction  -     @1079        
#   xact_type    xact_type_enum   1     WRITE        
#   xfer_size    hsize_e          3     HSIZE_WORD   
#   burst_type   hburst_e         3     HBURST_INCR4 
#   addr         integral         10    'h0          
#   data         integral         32    'h33445566   
#   write        integral         1     1            
#   wdata        integral         32    'h33445566   
#   rdata        integral         32    'h0          
#   size         hsize_e          3     HSIZE_WORD   
#   burst        hburst_e         3     HBURST_INCR4 
#   prot         integral         4     'h0          
#   lock         integral         1     'h0          
#   resp         hresp_e          1     HRESP_OKAY   
#   num_beats    integral         32    'd4          
#   idle_cycles  integral         32    'd0          
#   addr_q       da(integral)     0     -            
#   wdata_q      da(integral)     1     -            
#     [0]        integral         32    'h33445566   
#   rdata_q      da(integral)     0     -            
#   resp_q       array(hresp_e)   1     -            
#     [0]        hresp_e          1     HRESP_OKAY   
#   htrans       htrans_e         2     HTRANS_NONSEQ
#   trans        htrans_e         2     HTRANS_NONSEQ
#   beat_addr    da(integral)     1     -            
#     [0]        integral         10    'h0          
#   beat_wdata   da(integral)     1     -            
#     [0]        integral         32    'h33445566   
#   beat_rdata   da(integral)     0     -            
#   beat_resp    array(hresp_e)   1     -            
#     [0]        hresp_e          1     HRESP_OKAY   
#   beat_index   integral         32    'd0          
# ---------------------------------------------------
# 
# UVM_INFO ./../regmodel/eth_reg2ahb_adapter.sv(46) @ 125000: reporter [eth_reg2ahb_adapter] bus2reg: address = 0x0, data = 0x33445566, kind = UVM_WRITE, status = UVM_IS_OK
# UVM_INFO /home/venus/QuestaSim/uvm-1.2/src/reg/uvm_reg_predictor.svh(218) @ 125000: uvm_test_top.env.ahb_predictor [REG_PREDICT] Observed WRITE transaction to register regmodel.MAC_SA_LOW: value='h33445566 : updated value = 'h33445566
# UVM_INFO ./../vip/ahb_vip/ahb_monitor.sv(135) @ 135000: uvm_test_top.env.ahb_agt.monitor [ahb_monitor] Send trans from monitor to scoreboard: 
# --------------------------------------------------
# Name           Type             Size  Value       
# --------------------------------------------------
# trans          ahb_transaction  -     @1093       
#   xact_type    xact_type_enum   1     WRITE       
#   xfer_size    hsize_e          3     HSIZE_WORD  
#   burst_type   hburst_e         3     HBURST_INCR4
#   addr         integral         10    'h4         
#   data         integral         32    'h1122      
#   write        integral         1     1           
#   wdata        integral         32    'h1122      
#   rdata        integral         32    'h0         
#   size         hsize_e          3     HSIZE_WORD  
#   burst        hburst_e         3     HBURST_INCR4
#   prot         integral         4     'h0         
#   lock         integral         1     'h0         
#   resp         hresp_e          1     HRESP_OKAY  
#   num_beats    integral         32    'd4         
#   idle_cycles  integral         32    'd0         
#   addr_q       da(integral)     0     -           
#   wdata_q      da(integral)     1     -           
#     [0]        integral         32    'h1122      
#   rdata_q      da(integral)     0     -           
#   resp_q       array(hresp_e)   1     -           
#     [0]        hresp_e          1     HRESP_OKAY  
#   htrans       htrans_e         2     HTRANS_SEQ  
#   trans        htrans_e         2     HTRANS_SEQ  
#   beat_addr    da(integral)     1     -           
#     [0]        integral         10    'h4         
#   beat_wdata   da(integral)     1     -           
#     [0]        integral         32    'h1122      
#   beat_rdata   da(integral)     0     -           
#   beat_resp    array(hresp_e)   1     -           
#     [0]        hresp_e          1     HRESP_OKAY  
#   beat_index   integral         32    'd1         
# --------------------------------------------------
# 
# UVM_INFO ./../regmodel/eth_reg2ahb_adapter.sv(46) @ 135000: reporter [eth_reg2ahb_adapter] bus2reg: address = 0x4, data = 0x1122, kind = UVM_WRITE, status = UVM_IS_OK
# UVM_INFO /home/venus/QuestaSim/uvm-1.2/src/reg/uvm_reg_predictor.svh(218) @ 135000: uvm_test_top.env.ahb_predictor [REG_PREDICT] Observed WRITE transaction to register regmodel.MAC_SA_HIGH: value='h1122 : updated value = 'h1122
# UVM_INFO ./../vip/ahb_vip/ahb_monitor.sv(135) @ 145000: uvm_test_top.env.ahb_agt.monitor [ahb_monitor] Send trans from monitor to scoreboard: 
# --------------------------------------------------
# Name           Type             Size  Value       
# --------------------------------------------------
# trans          ahb_transaction  -     @1107       
#   xact_type    xact_type_enum   1     WRITE       
#   xfer_size    hsize_e          3     HSIZE_WORD  
#   burst_type   hburst_e         3     HBURST_INCR4
#   addr         integral         10    'h8         
#   data         integral         32    'h3         
#   write        integral         1     1           
#   wdata        integral         32    'h3         
#   rdata        integral         32    'h0         
#   size         hsize_e          3     HSIZE_WORD  
#   burst        hburst_e         3     HBURST_INCR4
#   prot         integral         4     'h0         
#   lock         integral         1     'h0         
#   resp         hresp_e          1     HRESP_OKAY  
#   num_beats    integral         32    'd4         
#   idle_cycles  integral         32    'd0         
#   addr_q       da(integral)     0     -           
#   wdata_q      da(integral)     1     -           
#     [0]        integral         32    'h3         
#   rdata_q      da(integral)     0     -           
#   resp_q       array(hresp_e)   1     -           
#     [0]        hresp_e          1     HRESP_OKAY  
#   htrans       htrans_e         2     HTRANS_SEQ  
#   trans        htrans_e         2     HTRANS_SEQ  
#   beat_addr    da(integral)     1     -           
#     [0]        integral         10    'h8         
#   beat_wdata   da(integral)     1     -           
#     [0]        integral         32    'h3         
#   beat_rdata   da(integral)     0     -           
#   beat_resp    array(hresp_e)   1     -           
#     [0]        hresp_e          1     HRESP_OKAY  
#   beat_index   integral         32    'd2         
# --------------------------------------------------
# 
# UVM_INFO ./../regmodel/eth_reg2ahb_adapter.sv(46) @ 145000: reporter [eth_reg2ahb_adapter] bus2reg: address = 0x8, data = 0x3, kind = UVM_WRITE, status = UVM_IS_OK
# UVM_INFO /home/venus/QuestaSim/uvm-1.2/src/reg/uvm_reg_predictor.svh(218) @ 145000: uvm_test_top.env.ahb_predictor [REG_PREDICT] Observed WRITE transaction to register regmodel.PAUSE_CTRL: value='h3 : updated value = 'h3
# UVM_INFO ./../vip/ahb_vip/ahb_driver.sv(47) @ 155000: uvm_test_top.env.ahb_agt.driver [run_phase] Completed WRITE transaction at addr 0x0 and data: 0x33445566
# UVM_INFO ./../vip/ahb_vip/ahb_monitor.sv(135) @ 155000: uvm_test_top.env.ahb_agt.monitor [ahb_monitor] Send trans from monitor to scoreboard: 
# --------------------------------------------------
# Name           Type             Size  Value       
# --------------------------------------------------
# trans          ahb_transaction  -     @1127       
#   xact_type    xact_type_enum   1     WRITE       
#   xfer_size    hsize_e          3     HSIZE_WORD  
#   burst_type   hburst_e         3     HBURST_INCR4
#   addr         integral         10    'hc         
#   data         integral         32    'h4         
#   write        integral         1     1           
#   wdata        integral         32    'h4         
#   rdata        integral         32    'h0         
#   size         hsize_e          3     HSIZE_WORD  
#   burst        hburst_e         3     HBURST_INCR4
#   prot         integral         4     'h0         
#   lock         integral         1     'h0         
#   resp         hresp_e          1     HRESP_OKAY  
#   num_beats    integral         32    'd4         
#   idle_cycles  integral         32    'd0         
#   addr_q       da(integral)     0     -           
#   wdata_q      da(integral)     1     -           
#     [0]        integral         32    'h4         
#   rdata_q      da(integral)     0     -           
#   resp_q       array(hresp_e)   1     -           
#     [0]        hresp_e          1     HRESP_OKAY  
#   htrans       htrans_e         2     HTRANS_SEQ  
#   trans        htrans_e         2     HTRANS_SEQ  
#   beat_addr    da(integral)     1     -           
#     [0]        integral         10    'hc         
#   beat_wdata   da(integral)     1     -           
#     [0]        integral         32    'h4         
#   beat_rdata   da(integral)     0     -           
#   beat_resp    array(hresp_e)   1     -           
#     [0]        hresp_e          1     HRESP_OKAY  
#   beat_index   integral         32    'd3         
# --------------------------------------------------
# 
# UVM_INFO ./../regmodel/eth_reg2ahb_adapter.sv(46) @ 155000: reporter [eth_reg2ahb_adapter] bus2reg: address = 0xc, data = 0x4, kind = UVM_WRITE, status = UVM_IS_OK
# UVM_INFO /home/venus/QuestaSim/uvm-1.2/src/reg/uvm_reg_predictor.svh(218) @ 155000: uvm_test_top.env.ahb_predictor [REG_PREDICT] Observed WRITE transaction to register regmodel.IER: value='h4 : updated value = 'h4
# UVM_INFO ./../sequences/eth_ahb_burst_write_seq.sv(99) @ 155000: uvm_test_top.env.ahb_agt.sequencer@@burst_seq [eth_ahb_burst_write_seq] AHB burst write chunk: addr=0x10 beats=1 burst=HBURST_SINGLE
# UVM_INFO ./../vip/ahb_vip/ahb_driver.sv(28) @ 155000: uvm_test_top.env.ahb_agt.driver [run_phase] Start WRITE transaction - ADRRESS: 0x10
# UVM_INFO ./../vip/ahb_vip/ahb_monitor.sv(135) @ 175000: uvm_test_top.env.ahb_agt.monitor [ahb_monitor] Send trans from monitor to scoreboard: 
# ---------------------------------------------------
# Name           Type             Size  Value        
# ---------------------------------------------------
# trans          ahb_transaction  -     @1150        
#   xact_type    xact_type_enum   1     WRITE        
#   xfer_size    hsize_e          3     HSIZE_WORD   
#   burst_type   hburst_e         3     HBURST_SINGLE
#   addr         integral         10    'h10         
#   data         integral         32    'h23         
#   write        integral         1     1            
#   wdata        integral         32    'h23         
#   rdata        integral         32    'h0          
#   size         hsize_e          3     HSIZE_WORD   
#   burst        hburst_e         3     HBURST_SINGLE
#   prot         integral         4     'h0          
#   lock         integral         1     'h0          
#   resp         hresp_e          1     HRESP_OKAY   
#   num_beats    integral         32    'd1          
#   idle_cycles  integral         32    'd0          
#   addr_q       da(integral)     0     -            
#   wdata_q      da(integral)     1     -            
#     [0]        integral         32    'h23         
#   rdata_q      da(integral)     0     -            
#   resp_q       array(hresp_e)   1     -            
#     [0]        hresp_e          1     HRESP_OKAY   
#   htrans       htrans_e         2     HTRANS_NONSEQ
#   trans        htrans_e         2     HTRANS_NONSEQ
#   beat_addr    da(integral)     1     -            
#     [0]        integral         10    'h10         
#   beat_wdata   da(integral)     1     -            
#     [0]        integral         32    'h23         
#   beat_rdata   da(integral)     0     -            
#   beat_resp    array(hresp_e)   1     -            
#     [0]        hresp_e          1     HRESP_OKAY   
#   beat_index   integral         32    'd0          
# ---------------------------------------------------
# 
# UVM_INFO ./../regmodel/eth_reg2ahb_adapter.sv(46) @ 175000: reporter [eth_reg2ahb_adapter] bus2reg: address = 0x10, data = 0x23, kind = UVM_WRITE, status = UVM_IS_OK
# UVM_INFO /home/venus/QuestaSim/uvm-1.2/src/reg/uvm_reg_predictor.svh(218) @ 175000: uvm_test_top.env.ahb_predictor [REG_PREDICT] Observed WRITE transaction to register regmodel.MAC_CTRL: value='h23 : updated value = 'h23
# UVM_INFO ./../vip/ahb_vip/ahb_driver.sv(47) @ 175000: uvm_test_top.env.ahb_agt.driver [run_phase] Completed WRITE transaction at addr 0x10 and data: 0x23
# UVM_INFO ./../testcases/eth_base_test.sv(149) @ 175000: uvm_test_top [full_100M_normal_uni_test] burst_write_reg_range: completed
# UVM_INFO ./../testcases/eth_base_test.sv(137) @ 175000: uvm_test_top [full_100M_normal_uni_test] burst_write_reg_range: start=0x20 end=0x24 beats=2 auto_fixed_burst=1
# UVM_INFO ./../sequences/eth_ahb_burst_write_seq.sv(99) @ 175000: uvm_test_top.env.ahb_agt.sequencer@@burst_seq [eth_ahb_burst_write_seq] AHB burst write chunk: addr=0x20 beats=2 burst=HBURST_INCR
# UVM_INFO ./../vip/ahb_vip/ahb_driver.sv(28) @ 175000: uvm_test_top.env.ahb_agt.driver [run_phase] Start WRITE transaction - ADRRESS: 0x20
# UVM_INFO ./../vip/ahb_vip/ahb_monitor.sv(135) @ 195000: uvm_test_top.env.ahb_agt.monitor [ahb_monitor] Send trans from monitor to scoreboard: 
# ---------------------------------------------------
# Name           Type             Size  Value        
# ---------------------------------------------------
# trans          ahb_transaction  -     @1190        
#   xact_type    xact_type_enum   1     WRITE        
#   xfer_size    hsize_e          3     HSIZE_WORD   
#   burst_type   hburst_e         3     HBURST_INCR  
#   addr         integral         10    'h20         
#   data         integral         32    'h0          
#   write        integral         1     1            
#   wdata        integral         32    'h0          
#   rdata        integral         32    'h0          
#   size         hsize_e          3     HSIZE_WORD   
#   burst        hburst_e         3     HBURST_INCR  
#   prot         integral         4     'h0          
#   lock         integral         1     'h0          
#   resp         hresp_e          1     HRESP_OKAY   
#   num_beats    integral         32    'd0          
#   idle_cycles  integral         32    'd0          
#   addr_q       da(integral)     0     -            
#   wdata_q      da(integral)     1     -            
#     [0]        integral         32    'h0          
#   rdata_q      da(integral)     0     -            
#   resp_q       array(hresp_e)   1     -            
#     [0]        hresp_e          1     HRESP_OKAY   
#   htrans       htrans_e         2     HTRANS_NONSEQ
#   trans        htrans_e         2     HTRANS_NONSEQ
#   beat_addr    da(integral)     1     -            
#     [0]        integral         10    'h20         
#   beat_wdata   da(integral)     1     -            
#     [0]        integral         32    'h0          
#   beat_rdata   da(integral)     0     -            
#   beat_resp    array(hresp_e)   1     -            
#     [0]        hresp_e          1     HRESP_OKAY   
#   beat_index   integral         32    'd0          
# ---------------------------------------------------
# 
# UVM_INFO ./../regmodel/eth_reg2ahb_adapter.sv(46) @ 195000: reporter [eth_reg2ahb_adapter] bus2reg: address = 0x20, data = 0x0, kind = UVM_WRITE, status = UVM_IS_OK
# UVM_INFO /home/venus/QuestaSim/uvm-1.2/src/reg/uvm_reg_predictor.svh(218) @ 195000: uvm_test_top.env.ahb_predictor [REG_PREDICT] Observed WRITE transaction to register regmodel.HASH_0: value='h0 : updated value = 'h0
# UVM_INFO ./../vip/ahb_vip/ahb_driver.sv(47) @ 205000: uvm_test_top.env.ahb_agt.driver [run_phase] Completed WRITE transaction at addr 0x20 and data: 0x0
# UVM_INFO ./../vip/ahb_vip/ahb_monitor.sv(135) @ 205000: uvm_test_top.env.ahb_agt.monitor [ahb_monitor] Send trans from monitor to scoreboard: 
# -------------------------------------------------
# Name           Type             Size  Value      
# -------------------------------------------------
# trans          ahb_transaction  -     @1210      
#   xact_type    xact_type_enum   1     WRITE      
#   xfer_size    hsize_e          3     HSIZE_WORD 
#   burst_type   hburst_e         3     HBURST_INCR
#   addr         integral         10    'h24       
#   data         integral         32    'h0        
#   write        integral         1     1          
#   wdata        integral         32    'h0        
#   rdata        integral         32    'h0        
#   size         hsize_e          3     HSIZE_WORD 
#   burst        hburst_e         3     HBURST_INCR
#   prot         integral         4     'h0        
#   lock         integral         1     'h0        
#   resp         hresp_e          1     HRESP_OKAY 
#   num_beats    integral         32    'd0        
#   idle_cycles  integral         32    'd0        
#   addr_q       da(integral)     0     -          
#   wdata_q      da(integral)     1     -          
#     [0]        integral         32    'h0        
#   rdata_q      da(integral)     0     -          
#   resp_q       array(hresp_e)   1     -          
#     [0]        hresp_e          1     HRESP_OKAY 
#   htrans       htrans_e         2     HTRANS_SEQ 
#   trans        htrans_e         2     HTRANS_SEQ 
#   beat_addr    da(integral)     1     -          
#     [0]        integral         10    'h24       
#   beat_wdata   da(integral)     1     -          
#     [0]        integral         32    'h0        
#   beat_rdata   da(integral)     0     -          
#   beat_resp    array(hresp_e)   1     -          
#     [0]        hresp_e          1     HRESP_OKAY 
#   beat_index   integral         32    'd1        
# -------------------------------------------------
# 
# UVM_INFO ./../regmodel/eth_reg2ahb_adapter.sv(46) @ 205000: reporter [eth_reg2ahb_adapter] bus2reg: address = 0x24, data = 0x0, kind = UVM_WRITE, status = UVM_IS_OK
# UVM_INFO /home/venus/QuestaSim/uvm-1.2/src/reg/uvm_reg_predictor.svh(218) @ 205000: uvm_test_top.env.ahb_predictor [REG_PREDICT] Observed WRITE transaction to register regmodel.HASH_1: value='h0 : updated value = 'h0
# UVM_INFO ./../testcases/eth_base_test.sv(149) @ 205000: uvm_test_top [full_100M_normal_uni_test] burst_write_reg_range: completed
# UVM_INFO ./../testcases/eth_base_test.sv(137) @ 205000: uvm_test_top [full_100M_normal_uni_test] burst_write_reg_range: start=0x40 end=0x48 beats=3 auto_fixed_burst=1
# UVM_INFO ./../sequences/eth_ahb_burst_write_seq.sv(99) @ 205000: uvm_test_top.env.ahb_agt.sequencer@@burst_seq [eth_ahb_burst_write_seq] AHB burst write chunk: addr=0x40 beats=3 burst=HBURST_INCR
# UVM_INFO ./../vip/ahb_vip/ahb_driver.sv(28) @ 205000: uvm_test_top.env.ahb_agt.driver [run_phase] Start WRITE transaction - ADRRESS: 0x40
# UVM_INFO ./../vip/ahb_vip/ahb_monitor.sv(135) @ 225000: uvm_test_top.env.ahb_agt.monitor [ahb_monitor] Send trans from monitor to scoreboard: 
# ---------------------------------------------------
# Name           Type             Size  Value        
# ---------------------------------------------------
# trans          ahb_transaction  -     @1244        
#   xact_type    xact_type_enum   1     WRITE        
#   xfer_size    hsize_e          3     HSIZE_WORD   
#   burst_type   hburst_e         3     HBURST_INCR  
#   addr         integral         10    'h40         
#   data         integral         32    'hccddeeff   
#   write        integral         1     1            
#   wdata        integral         32    'hccddeeff   
#   rdata        integral         32    'h0          
#   size         hsize_e          3     HSIZE_WORD   
#   burst        hburst_e         3     HBURST_INCR  
#   prot         integral         4     'h0          
#   lock         integral         1     'h0          
#   resp         hresp_e          1     HRESP_OKAY   
#   num_beats    integral         32    'd0          
#   idle_cycles  integral         32    'd0          
#   addr_q       da(integral)     0     -            
#   wdata_q      da(integral)     1     -            
#     [0]        integral         32    'hccddeeff   
#   rdata_q      da(integral)     0     -            
#   resp_q       array(hresp_e)   1     -            
#     [0]        hresp_e          1     HRESP_OKAY   
#   htrans       htrans_e         2     HTRANS_NONSEQ
#   trans        htrans_e         2     HTRANS_NONSEQ
#   beat_addr    da(integral)     1     -            
#     [0]        integral         10    'h40         
#   beat_wdata   da(integral)     1     -            
#     [0]        integral         32    'hccddeeff   
#   beat_rdata   da(integral)     0     -            
#   beat_resp    array(hresp_e)   1     -            
#     [0]        hresp_e          1     HRESP_OKAY   
#   beat_index   integral         32    'd0          
# ---------------------------------------------------
# 
# UVM_INFO ./../regmodel/eth_reg2ahb_adapter.sv(46) @ 225000: reporter [eth_reg2ahb_adapter] bus2reg: address = 0x40, data = 0xccddeeff, kind = UVM_WRITE, status = UVM_IS_OK
# UVM_INFO /home/venus/QuestaSim/uvm-1.2/src/reg/uvm_reg_predictor.svh(218) @ 225000: uvm_test_top.env.ahb_predictor [REG_PREDICT] Observed WRITE transaction to register regmodel.TX_DA_LOW: value='hccddeeff : updated value = 'hccddeeff
# UVM_INFO ./../vip/ahb_vip/ahb_monitor.sv(135) @ 235000: uvm_test_top.env.ahb_agt.monitor [ahb_monitor] Send trans from monitor to scoreboard: 
# -------------------------------------------------
# Name           Type             Size  Value      
# -------------------------------------------------
# trans          ahb_transaction  -     @1258      
#   xact_type    xact_type_enum   1     WRITE      
#   xfer_size    hsize_e          3     HSIZE_WORD 
#   burst_type   hburst_e         3     HBURST_INCR
#   addr         integral         10    'h44       
#   data         integral         32    'haabb     
#   write        integral         1     1          
#   wdata        integral         32    'haabb     
#   rdata        integral         32    'h0        
#   size         hsize_e          3     HSIZE_WORD 
#   burst        hburst_e         3     HBURST_INCR
#   prot         integral         4     'h0        
#   lock         integral         1     'h0        
#   resp         hresp_e          1     HRESP_OKAY 
#   num_beats    integral         32    'd0        
#   idle_cycles  integral         32    'd0        
#   addr_q       da(integral)     0     -          
#   wdata_q      da(integral)     1     -          
#     [0]        integral         32    'haabb     
#   rdata_q      da(integral)     0     -          
#   resp_q       array(hresp_e)   1     -          
#     [0]        hresp_e          1     HRESP_OKAY 
#   htrans       htrans_e         2     HTRANS_SEQ 
#   trans        htrans_e         2     HTRANS_SEQ 
#   beat_addr    da(integral)     1     -          
#     [0]        integral         10    'h44       
#   beat_wdata   da(integral)     1     -          
#     [0]        integral         32    'haabb     
#   beat_rdata   da(integral)     0     -          
#   beat_resp    array(hresp_e)   1     -          
#     [0]        hresp_e          1     HRESP_OKAY 
#   beat_index   integral         32    'd1        
# -------------------------------------------------
# 
# UVM_INFO ./../regmodel/eth_reg2ahb_adapter.sv(46) @ 235000: reporter [eth_reg2ahb_adapter] bus2reg: address = 0x44, data = 0xaabb, kind = UVM_WRITE, status = UVM_IS_OK
# UVM_INFO /home/venus/QuestaSim/uvm-1.2/src/reg/uvm_reg_predictor.svh(218) @ 235000: uvm_test_top.env.ahb_predictor [REG_PREDICT] Observed WRITE transaction to register regmodel.TX_DA_HIGH: value='haabb : updated value = 'haabb
# UVM_INFO ./../vip/ahb_vip/ahb_monitor.sv(135) @ 245000: uvm_test_top.env.ahb_agt.monitor [ahb_monitor] Send trans from monitor to scoreboard: 
# -------------------------------------------------
# Name           Type             Size  Value      
# -------------------------------------------------
# trans          ahb_transaction  -     @1272      
#   xact_type    xact_type_enum   1     WRITE      
#   xfer_size    hsize_e          3     HSIZE_WORD 
#   burst_type   hburst_e         3     HBURST_INCR
#   addr         integral         10    'h48       
#   data         integral         32    'h2dc      
#   write        integral         1     1          
#   wdata        integral         32    'h2dc      
#   rdata        integral         32    'h0        
#   size         hsize_e          3     HSIZE_WORD 
#   burst        hburst_e         3     HBURST_INCR
#   prot         integral         4     'h0        
#   lock         integral         1     'h0        
#   resp         hresp_e          1     HRESP_OKAY 
#   num_beats    integral         32    'd0        
#   idle_cycles  integral         32    'd0        
#   addr_q       da(integral)     0     -          
#   wdata_q      da(integral)     1     -          
#     [0]        integral         32    'h2dc      
#   rdata_q      da(integral)     0     -          
#   resp_q       array(hresp_e)   1     -          
#     [0]        hresp_e          1     HRESP_OKAY 
#   htrans       htrans_e         2     HTRANS_SEQ 
#   trans        htrans_e         2     HTRANS_SEQ 
#   beat_addr    da(integral)     1     -          
#     [0]        integral         10    'h48       
#   beat_wdata   da(integral)     1     -          
#     [0]        integral         32    'h2dc      
#   beat_rdata   da(integral)     0     -          
#   beat_resp    array(hresp_e)   1     -          
#     [0]        hresp_e          1     HRESP_OKAY 
#   beat_index   integral         32    'd2        
# -------------------------------------------------
# 
# UVM_INFO ./../regmodel/eth_reg2ahb_adapter.sv(46) @ 245000: reporter [eth_reg2ahb_adapter] bus2reg: address = 0x48, data = 0x2dc, kind = UVM_WRITE, status = UVM_IS_OK
# UVM_INFO /home/venus/QuestaSim/uvm-1.2/src/reg/uvm_reg_predictor.svh(218) @ 245000: uvm_test_top.env.ahb_predictor [REG_PREDICT] Observed WRITE transaction to register regmodel.TX_LEN: value='h2dc : updated value = 'h2dc
# UVM_INFO ./../vip/ahb_vip/ahb_driver.sv(47) @ 245000: uvm_test_top.env.ahb_agt.driver [run_phase] Completed WRITE transaction at addr 0x40 and data: 0xccddeeff
# UVM_INFO ./../testcases/eth_base_test.sv(149) @ 245000: uvm_test_top [full_100M_normal_uni_test] burst_write_reg_range: completed
# UVM_INFO ./../testcases/eth_base_test.sv(182) @ 245000: uvm_test_top [full_100M_normal_uni_test] random_payload: byte_len=732 num_words=183
#   payload[0] = 32'h1c025562
#   payload[1] = 32'h64d3dbd6
#   payload[2] = 32'hffebfdf5
#   payload[3] = 32'heb39be7e
#   payload[4] = 32'hec6d4d48
#   payload[5] = 32'h1a20b0c5
#   payload[6] = 32'h24645383
#   payload[7] = 32'h35824904
#   payload[8] = 32'h4dd78a09
#   payload[9] = 32'h2d0f4798
#   payload[10] = 32'hb5e8d8c0
#   payload[11] = 32'h9a29ae74
#   payload[12] = 32'h2741eff1
#   payload[13] = 32'h067f9cfc
#   payload[14] = 32'h096a0ac0
#   payload[15] = 32'haa956916
#   payload[16] = 32'he2fbd7ad
#   payload[17] = 32'h656e90c3
#   payload[18] = 32'h19105ed9
#   payload[19] = 32'hd16448c8
#   payload[20] = 32'h1c000ccb
#   payload[21] = 32'he0e9d376
#   payload[22] = 32'hf2f0cd24
#   payload[23] = 32'hd2d5d0b9
#   payload[24] = 32'hd12b5dd2
#   payload[25] = 32'hb923c8e3
#   payload[26] = 32'h7911af82
#   payload[27] = 32'h6da91824
#   payload[28] = 32'haf2e53c5
#   payload[29] = 32'h3dd9c81a
#   payload[30] = 32'hff44f4c6
#   payload[31] = 32'hf9b67031
#   payload[32] = 32'h8042d3dc
#   payload[33] = 32'h2f8644c0
#   payload[34] = 32'h2a2fd4da
#   payload[35] = 32'ha3815a0f
#   payload[36] = 32'h24153790
#   payload[37] = 32'h6d13bb16
#   payload[38] = 32'hb94c2514
#   payload[39] = 32'h0b5988ee
#   payload[40] = 32'h2a1a4ee8
#   payload[41] = 32'he05f703a
#   payload[42] = 32'hbcbef10d
#   payload[43] = 32'h74c82e26
#   payload[44] = 32'h4908f4a6
#   payload[45] = 32'h3c70f62a
#   payload[46] = 32'h0be5e92e
#   payload[47] = 32'h47a8b990
#   payload[48] = 32'haa60e526
#   payload[49] = 32'h09261133
#   payload[50] = 32'h7b54811c
#   payload[51] = 32'hd1dc1549
#   payload[52] = 32'h4c800921
#   payload[53] = 32'h5a54db8e
#   payload[54] = 32'hf2924d36
#   payload[55] = 32'h66df71c4
#   payload[56] = 32'hbcd3ddb7
#   payload[57] = 32'h10c46a35
#   payload[58] = 32'h166463fd
#   payload[59] = 32'h5b16646b
#   payload[60] = 32'h49210bfd
#   payload[61] = 32'h9d2a494e
#   payload[62] = 32'h8d36a2e9
#   payload[63] = 32'h260d4437
#   payload[64] = 32'hf3f87057
#   payload[65] = 32'h3aaccb52
#   payload[66] = 32'he354b9b5
#   payload[67] = 32'ha325bbdb
#   payload[68] = 32'h640f53ea
#   payload[69] = 32'h9ee2dc3d
#   payload[70] = 32'hafffad29
#   payload[71] = 32'h9b8bdd20
#   payload[72] = 32'ha1885697
#   payload[73] = 32'h9e8f2179
#   payload[74] = 32'h9febf4ee
#   payload[75] = 32'hf2b25bc6
#   payload[76] = 32'h9d32fb64
#   payload[77] = 32'h632ab337
#   payload[78] = 32'hbb2b992e
#   payload[79] = 32'h993fd2fc
#   payload[80] = 32'hdfd17ffa
#   payload[81] = 32'h37b6f98a
#   payload[82] = 32'hc4612d79
#   payload[83] = 32'h8223fb9f
#   payload[84] = 32'h51264fb5
#   payload[85] = 32'h1625e9b1
#   payload[86] = 32'hbfe90288
#   payload[87] = 32'h8d061ec3
#   payload[88] = 32'h56d180d1
#   payload[89] = 32'h6c2bb64a
#   payload[90] = 32'he75895b2
#   payload[91] = 32'h51c3aa19
#   payload[92] = 32'h554a0d21
#   payload[93] = 32'hb815d0b0
#   payload[94] = 32'ha7f04819
#   payload[95] = 32'h205d868f
#   payload[96] = 32'h6f57401e
#   payload[97] = 32'h1736423c
#   payload[98] = 32'h109f34be
#   payload[99] = 32'h622b0b9e
#   payload[100] = 32'h19af7959
#   payload[101] = 32'h4739266f
#   payload[102] = 32'hd2a9ab7c
#   payload[103] = 32'hf4b02d05
#   payload[104] = 32'hb44cddee
#   payload[105] = 32'h893a5659
#   payload[106] = 32'hf9482e11
#   payload[107] = 32'h6209160d
#   payload[108] = 32'hd48c809d
#   payload[109] = 32'h237c7333
#   payload[110] = 32'h4d42f74d
#   payload[111] = 32'h6ab14d23
#   payload[112] = 32'h383412e9
#   payload[113] = 32'hfcbae133
#   payload[114] = 32'h3b4386cf
#   payload[115] = 32'h2b53201c
#   payload[116] = 32'h42fc1f58
#   payload[117] = 32'h9c0d6ba7
#   payload[118] = 32'h7dc27d56
#   payload[119] = 32'hef2c869f
#   payload[120] = 32'h64993357
#   payload[121] = 32'h35e5cfc1
#   payload[122] = 32'h2d7ef978
#   payload[123] = 32'h1392ac3e
#   payload[124] = 32'h92cab994
#   payload[125] = 32'h1b582c57
#   payload[126] = 32'hddeb0272
#   payload[127] = 32'hd7bfe788
#   payload[128] = 32'hde513f21
#   payload[129] = 32'h23f69a90
#   payload[130] = 32'h477bc0bb
#   payload[131] = 32'h8fa679d3
#   payload[132] = 32'h0cae9c6c
#   payload[133] = 32'ha169fed6
#   payload[134] = 32'h70ce15fe
#   payload[135] = 32'h479385a0
#   payload[136] = 32'hc77452f6
#   payload[137] = 32'h56ac9b00
#   payload[138] = 32'h7752bee6
#   payload[139] = 32'hc2e5a3d4
#   payload[140] = 32'h2f1fd155
#   payload[141] = 32'h032601b5
#   payload[142] = 32'h7351e716
#   payload[143] = 32'hc60e2974
#   payload[144] = 32'h44155367
#   payload[145] = 32'h986ec92e
#   payload[146] = 32'h132f9864
#   payload[147] = 32'h0bae09ce
#   payload[148] = 32'h0a8f0a66
#   payload[149] = 32'hd44d504c
#   payload[150] = 32'h9a19a9ef
#   payload[151] = 32'h1a07c532
#   payload[152] = 32'h13dcebf8
#   payload[153] = 32'h903c59bf
#   payload[154] = 32'h8e3a2e8f
#   payload[155] = 32'h10c7d799
#   payload[156] = 32'h21e6887e
#   payload[157] = 32'hb7bce028
#   payload[158] = 32'h40b39f26
#   payload[159] = 32'h20d76cd7
#   payload[160] = 32'h95a7c218
#   payload[161] = 32'h152faf46
#   payload[162] = 32'h2bea43c7
#   payload[163] = 32'h76af5298
#   payload[164] = 32'h6beea530
#   payload[165] = 32'hfa6302a3
#   payload[166] = 32'head921fd
#   payload[167] = 32'h1ead47f1
#   payload[168] = 32'h9d597790
#   payload[169] = 32'hc7bc5d1f
#   payload[170] = 32'hcdfe0a3d
#   payload[171] = 32'hdd85b3d8
#   payload[172] = 32'h4a5ee7af
#   payload[173] = 32'hc55b9edb
#   payload[174] = 32'h8be3c231
#   payload[175] = 32'hb596d21f
#   payload[176] = 32'hbf4d896a
#   payload[177] = 32'h59600696
#   payload[178] = 32'he9d0b921
#   payload[179] = 32'h210eaadf
#   payload[180] = 32'h6ecd8c51
#   payload[181] = 32'h36e7a42c
#   payload[182] = 32'hae17eced
# UVM_INFO ./../regmodel/eth_reg2ahb_adapter.sv(31) @ 245000: reporter [eth_reg2ahb_adapter] reg2bus: address = 0x4c, data = 0x1c025562, kind = WRITE
# UVM_INFO ./../vip/ahb_vip/ahb_driver.sv(28) @ 245000: uvm_test_top.env.ahb_agt.driver [run_phase] Start WRITE transaction - ADRRESS: 0x4c
# UVM_INFO ./../vip/ahb_vip/ahb_monitor.sv(135) @ 265000: uvm_test_top.env.ahb_agt.monitor [ahb_monitor] Send trans from monitor to scoreboard: 
# ---------------------------------------------------
# Name           Type             Size  Value        
# ---------------------------------------------------
# trans          ahb_transaction  -     @1316        
#   xact_type    xact_type_enum   1     WRITE        
#   xfer_size    hsize_e          3     HSIZE_WORD   
#   burst_type   hburst_e         3     HBURST_SINGLE
#   addr         integral         10    'h4c         
#   data         integral         32    'h1c025562   
#   write        integral         1     1            
#   wdata        integral         32    'h1c025562   
#   rdata        integral         32    'h0          
#   size         hsize_e          3     HSIZE_WORD   
#   burst        hburst_e         3     HBURST_SINGLE
#   prot         integral         4     'h0          
#   lock         integral         1     'h0          
#   resp         hresp_e          1     HRESP_OKAY   
#   num_beats    integral         32    'd1          
#   idle_cycles  integral         32    'd0          
#   addr_q       da(integral)     0     -            
#   wdata_q      da(integral)     1     -            
#     [0]        integral         32    'h1c025562   
#   rdata_q      da(integral)     0     -            
#   resp_q       array(hresp_e)   1     -            
#     [0]        hresp_e          1     HRESP_OKAY   
#   htrans       htrans_e         2     HTRANS_NONSEQ
#   trans        htrans_e         2     HTRANS_NONSEQ
#   beat_addr    da(integral)     1     -            
#     [0]        integral         10    'h4c         
#   beat_wdata   da(integral)     1     -            
#     [0]        integral         32    'h1c025562   
#   beat_rdata   da(integral)     0     -            
#   beat_resp    array(hresp_e)   1     -            
#     [0]        hresp_e          1     HRESP_OKAY   
#   beat_index   integral         32    'd0          
# ---------------------------------------------------
# 
# UVM_INFO ./../regmodel/eth_reg2ahb_adapter.sv(46) @ 265000: reporter [eth_reg2ahb_adapter] bus2reg: address = 0x4c, data = 0x1c025562, kind = UVM_WRITE, status = UVM_IS_OK
# UVM_INFO /home/venus/QuestaSim/uvm-1.2/src/reg/uvm_reg_predictor.svh(218) @ 265000: uvm_test_top.env.ahb_predictor [REG_PREDICT] Observed WRITE transaction to register regmodel.TX_DATA: value='h1c025562 : updated value = 'h1c025562
# UVM_INFO ./../vip/ahb_vip/ahb_driver.sv(47) @ 265000: uvm_test_top.env.ahb_agt.driver [run_phase] Completed WRITE transaction at addr 0x4c and data: 0x1c025562
# UVM_INFO ./../regmodel/eth_reg2ahb_adapter.sv(46) @ 265000: reporter [eth_reg2ahb_adapter] bus2reg: address = 0x4c, data = 0x1c025562, kind = UVM_WRITE, status = UVM_IS_OK
# UVM_INFO @ 265000: reporter [RegModel] Wrote register via map regmodel.ahb_map: regmodel.TX_DATA=0x1c025562
# UVM_INFO ./../regmodel/eth_reg2ahb_adapter.sv(31) @ 265000: reporter [eth_reg2ahb_adapter] reg2bus: address = 0x4c, data = 0x64d3dbd6, kind = WRITE
# UVM_INFO ./../vip/ahb_vip/ahb_driver.sv(28) @ 265000: uvm_test_top.env.ahb_agt.driver [run_phase] Start WRITE transaction - ADRRESS: 0x4c
# UVM_INFO ./../vip/ahb_vip/ahb_monitor.sv(135) @ 285000: uvm_test_top.env.ahb_agt.monitor [ahb_monitor] Send trans from monitor to scoreboard: 
# ---------------------------------------------------
# Name           Type             Size  Value        
# ---------------------------------------------------
# trans          ahb_transaction  -     @1358        
#   xact_type    xact_type_enum   1     WRITE        
#   xfer_size    hsize_e          3     HSIZE_WORD   
#   burst_type   hburst_e         3     HBURST_SINGLE
#   addr         integral         10    'h4c         
#   data         integral         32    'h64d3dbd6   
#   write        integral         1     1            
#   wdata        integral         32    'h64d3dbd6   
#   rdata        integral         32    'h0          
#   size         hsize_e          3     HSIZE_WORD   
#   burst        hburst_e         3     HBURST_SINGLE
#   prot         integral         4     'h0          
#   lock         integral         1     'h0          
#   resp         hresp_e          1     HRESP_OKAY   
#   num_beats    integral         32    'd1          
#   idle_cycles  integral         32    'd0          
#   addr_q       da(integral)     0     -            
#   wdata_q      da(integral)     1     -            
#     [0]        integral         32    'h64d3dbd6   
#   rdata_q      da(integral)     0     -            
#   resp_q       array(hresp_e)   1     -            
#     [0]        hresp_e          1     HRESP_OKAY   
#   htrans       htrans_e         2     HTRANS_NONSEQ
#   trans        htrans_e         2     HTRANS_NONSEQ
#   beat_addr    da(integral)     1     -            
#     [0]        integral         10    'h4c         
#   beat_wdata   da(integral)     1     -            
#     [0]        integral         32    'h64d3dbd6   
#   beat_rdata   da(integral)     0     -            
#   beat_resp    array(hresp_e)   1     -            
#     [0]        hresp_e          1     HRESP_OKAY   
#   beat_index   integral         32    'd0          
# ---------------------------------------------------
# 
# UVM_INFO ./../regmodel/eth_reg2ahb_adapter.sv(46) @ 285000: reporter [eth_reg2ahb_adapter] bus2reg: address = 0x4c, data = 0x64d3dbd6, kind = UVM_WRITE, status = UVM_IS_OK
# UVM_INFO /home/venus/QuestaSim/uvm-1.2/src/reg/uvm_reg_predictor.svh(218) @ 285000: uvm_test_top.env.ahb_predictor [REG_PREDICT] Observed WRITE transaction to register regmodel.TX_DATA: value='h64d3dbd6 : updated value = 'h64d3dbd6
# UVM_INFO ./../vip/ahb_vip/ahb_driver.sv(47) @ 285000: uvm_test_top.env.ahb_agt.driver [run_phase] Completed WRITE transaction at addr 0x4c and data: 0x64d3dbd6
# UVM_INFO ./../regmodel/eth_reg2ahb_adapter.sv(46) @ 285000: reporter [eth_reg2ahb_adapter] bus2reg: address = 0x4c, data = 0x64d3dbd6, kind = UVM_WRITE, status = UVM_IS_OK
# UVM_INFO @ 285000: reporter [RegModel] Wrote register via map regmodel.ahb_map: regmodel.TX_DATA=0x64d3dbd6
# UVM_INFO ./../regmodel/eth_reg2ahb_adapter.sv(31) @ 285000: reporter [eth_reg2ahb_adapter] reg2bus: address = 0x4c, data = 0xffebfdf5, kind = WRITE
# UVM_INFO ./../vip/ahb_vip/ahb_driver.sv(28) @ 285000: uvm_test_top.env.ahb_agt.driver [run_phase] Start WRITE transaction - ADRRESS: 0x4c
# UVM_INFO ./../vip/ahb_vip/ahb_monitor.sv(135) @ 305000: uvm_test_top.env.ahb_agt.monitor [ahb_monitor] Send trans from monitor to scoreboard: 
# ---------------------------------------------------
# Name           Type             Size  Value        
# ---------------------------------------------------
# trans          ahb_transaction  -     @1400        
#   xact_type    xact_type_enum   1     WRITE        
#   xfer_size    hsize_e          3     HSIZE_WORD   
#   burst_type   hburst_e         3     HBURST_SINGLE
#   addr         integral         10    'h4c         
#   data         integral         32    'hffebfdf5   
#   write        integral         1     1            
#   wdata        integral         32    'hffebfdf5   
#   rdata        integral         32    'h0          
#   size         hsize_e          3     HSIZE_WORD   
#   burst        hburst_e         3     HBURST_SINGLE
#   prot         integral         4     'h0          
#   lock         integral         1     'h0          
#   resp         hresp_e          1     HRESP_OKAY   
#   num_beats    integral         32    'd1          
#   idle_cycles  integral         32    'd0          
#   addr_q       da(integral)     0     -            
#   wdata_q      da(integral)     1     -            
#     [0]        integral         32    'hffebfdf5   
#   rdata_q      da(integral)     0     -            
#   resp_q       array(hresp_e)   1     -            
#     [0]        hresp_e          1     HRESP_OKAY   
#   htrans       htrans_e         2     HTRANS_NONSEQ
#   trans        htrans_e         2     HTRANS_NONSEQ
#   beat_addr    da(integral)     1     -            
#     [0]        integral         10    'h4c         
#   beat_wdata   da(integral)     1     -            
#     [0]        integral         32    'hffebfdf5   
#   beat_rdata   da(integral)     0     -            
#   beat_resp    array(hresp_e)   1     -            
#     [0]        hresp_e          1     HRESP_OKAY   
#   beat_index   integral         32    'd0          
# ---------------------------------------------------
# 
# UVM_INFO ./../regmodel/eth_reg2ahb_adapter.sv(46) @ 305000: reporter [eth_reg2ahb_adapter] bus2reg: address = 0x4c, data = 0xffebfdf5, kind = UVM_WRITE, status = UVM_IS_OK
# UVM_INFO /home/venus/QuestaSim/uvm-1.2/src/reg/uvm_reg_predictor.svh(218) @ 305000: uvm_test_top.env.ahb_predictor [REG_PREDICT] Observed WRITE transaction to register regmodel.TX_DATA: value='hffebfdf5 : updated value = 'hffebfdf5
# UVM_INFO ./../vip/ahb_vip/ahb_driver.sv(47) @ 305000: uvm_test_top.env.ahb_agt.driver [run_phase] Completed WRITE transaction at addr 0x4c and data: 0xffebfdf5
# UVM_INFO ./../regmodel/eth_reg2ahb_adapter.sv(46) @ 305000: reporter [eth_reg2ahb_adapter] bus2reg: address = 0x4c, data = 0xffebfdf5, kind = UVM_WRITE, status = UVM_IS_OK
# UVM_INFO @ 305000: reporter [RegModel] Wrote register via map regmodel.ahb_map: regmodel.TX_DATA=0xffebfdf5
# UVM_INFO ./../regmodel/eth_reg2ahb_adapter.sv(31) @ 305000: reporter [eth_reg2ahb_adapter] reg2bus: address = 0x4c, data = 0xeb39be7e, kind = WRITE
# UVM_INFO ./../vip/ahb_vip/ahb_driver.sv(28) @ 305000: uvm_test_top.env.ahb_agt.driver [run_phase] Start WRITE transaction - ADRRESS: 0x4c
# UVM_INFO ./../vip/ahb_vip/ahb_monitor.sv(135) @ 325000: uvm_test_top.env.ahb_agt.monitor [ahb_monitor] Send trans from monitor to scoreboard: 
# ---------------------------------------------------
# Name           Type             Size  Value        
# ---------------------------------------------------
# trans          ahb_transaction  -     @1442        
#   xact_type    xact_type_enum   1     WRITE        
#   xfer_size    hsize_e          3     HSIZE_WORD   
#   burst_type   hburst_e         3     HBURST_SINGLE
#   addr         integral         10    'h4c         
#   data         integral         32    'heb39be7e   
#   write        integral         1     1            
#   wdata        integral         32    'heb39be7e   
#   rdata        integral         32    'h0          
#   size         hsize_e          3     HSIZE_WORD   
#   burst        hburst_e         3     HBURST_SINGLE
#   prot         integral         4     'h0          
#   lock         integral         1     'h0          
#   resp         hresp_e          1     HRESP_OKAY   
#   num_beats    integral         32    'd1          
#   idle_cycles  integral         32    'd0          
#   addr_q       da(integral)     0     -            
#   wdata_q      da(integral)     1     -            
#     [0]        integral         32    'heb39be7e   
#   rdata_q      da(integral)     0     -            
#   resp_q       array(hresp_e)   1     -            
#     [0]        hresp_e          1     HRESP_OKAY   
#   htrans       htrans_e         2     HTRANS_NONSEQ
#   trans        htrans_e         2     HTRANS_NONSEQ
#   beat_addr    da(integral)     1     -            
#     [0]        integral         10    'h4c         
#   beat_wdata   da(integral)     1     -            
#     [0]        integral         32    'heb39be7e   
#   beat_rdata   da(integral)     0     -            
#   beat_resp    array(hresp_e)   1     -            
#     [0]        hresp_e          1     HRESP_OKAY   
#   beat_index   integral         32    'd0          
# ---------------------------------------------------
# 
# UVM_INFO ./../regmodel/eth_reg2ahb_adapter.sv(46) @ 325000: reporter [eth_reg2ahb_adapter] bus2reg: address = 0x4c, data = 0xeb39be7e, kind = UVM_WRITE, status = UVM_IS_OK
# UVM_INFO /home/venus/QuestaSim/uvm-1.2/src/reg/uvm_reg_predictor.svh(218) @ 325000: uvm_test_top.env.ahb_predictor [REG_PREDICT] Observed WRITE transaction to register regmodel.TX_DATA: value='heb39be7e : updated value = 'heb39be7e
# UVM_INFO ./../vip/ahb_vip/ahb_driver.sv(47) @ 325000: uvm_test_top.env.ahb_agt.driver [run_phase] Completed WRITE transaction at addr 0x4c and data: 0xeb39be7e
# UVM_INFO ./../regmodel/eth_reg2ahb_adapter.sv(46) @ 325000: reporter [eth_reg2ahb_adapter] bus2reg: address = 0x4c, data = 0xeb39be7e, kind = UVM_WRITE, status = UVM_IS_OK
# UVM_INFO @ 325000: reporter [RegModel] Wrote register via map regmodel.ahb_map: regmodel.TX_DATA=0xeb39be7e
# UVM_INFO ./../regmodel/eth_reg2ahb_adapter.sv(31) @ 325000: reporter [eth_reg2ahb_adapter] reg2bus: address = 0x4c, data = 0xec6d4d48, kind = WRITE
# UVM_INFO ./../vip/ahb_vip/ahb_driver.sv(28) @ 325000: uvm_test_top.env.ahb_agt.driver [run_phase] Start WRITE transaction - ADRRESS: 0x4c
# UVM_INFO ./../vip/ahb_vip/ahb_monitor.sv(135) @ 345000: uvm_test_top.env.ahb_agt.monitor [ahb_monitor] Send trans from monitor to scoreboard: 
# ---------------------------------------------------
# Name           Type             Size  Value        
# ---------------------------------------------------
# trans          ahb_transaction  -     @1484        
#   xact_type    xact_type_enum   1     WRITE        
#   xfer_size    hsize_e          3     HSIZE_WORD   
#   burst_type   hburst_e         3     HBURST_SINGLE
#   addr         integral         10    'h4c         
#   data         integral         32    'hec6d4d48   
#   write        integral         1     1            
#   wdata        integral         32    'hec6d4d48   
#   rdata        integral         32    'h0          
#   size         hsize_e          3     HSIZE_WORD   
#   burst        hburst_e         3     HBURST_SINGLE
#   prot         integral         4     'h0          
#   lock         integral         1     'h0          
#   resp         hresp_e          1     HRESP_OKAY   
#   num_beats    integral         32    'd1          
#   idle_cycles  integral         32    'd0          
#   addr_q       da(integral)     0     -            
#   wdata_q      da(integral)     1     -            
#     [0]        integral         32    'hec6d4d48   
#   rdata_q      da(integral)     0     -            
#   resp_q       array(hresp_e)   1     -            
#     [0]        hresp_e          1     HRESP_OKAY   
#   htrans       htrans_e         2     HTRANS_NONSEQ
#   trans        htrans_e         2     HTRANS_NONSEQ
#   beat_addr    da(integral)     1     -            
#     [0]        integral         10    'h4c         
#   beat_wdata   da(integral)     1     -            
#     [0]        integral         32    'hec6d4d48   
#   beat_rdata   da(integral)     0     -            
#   beat_resp    array(hresp_e)   1     -            
#     [0]        hresp_e          1     HRESP_OKAY   
#   beat_index   integral         32    'd0          
# ---------------------------------------------------
# 
# UVM_INFO ./../regmodel/eth_reg2ahb_adapter.sv(46) @ 345000: reporter [eth_reg2ahb_adapter] bus2reg: address = 0x4c, data = 0xec6d4d48, kind = UVM_WRITE, status = UVM_IS_OK
# UVM_INFO /home/venus/QuestaSim/uvm-1.2/src/reg/uvm_reg_predictor.svh(218) @ 345000: uvm_test_top.env.ahb_predictor [REG_PREDICT] Observed WRITE transaction to register regmodel.TX_DATA: value='hec6d4d48 : updated value = 'hec6d4d48
# UVM_INFO ./../vip/ahb_vip/ahb_driver.sv(47) @ 345000: uvm_test_top.env.ahb_agt.driver [run_phase] Completed WRITE transaction at addr 0x4c and data: 0xec6d4d48
# UVM_INFO ./../regmodel/eth_reg2ahb_adapter.sv(46) @ 345000: reporter [eth_reg2ahb_adapter] bus2reg: address = 0x4c, data = 0xec6d4d48, kind = UVM_WRITE, status = UVM_IS_OK
# UVM_INFO @ 345000: reporter [RegModel] Wrote register via map regmodel.ahb_map: regmodel.TX_DATA=0xec6d4d48
# UVM_INFO ./../regmodel/eth_reg2ahb_adapter.sv(31) @ 345000: reporter [eth_reg2ahb_adapter] reg2bus: address = 0x4c, data = 0x1a20b0c5, kind = WRITE
# UVM_INFO ./../vip/ahb_vip/ahb_driver.sv(28) @ 345000: uvm_test_top.env.ahb_agt.driver [run_phase] Start WRITE transaction - ADRRESS: 0x4c
# UVM_INFO ./../vip/ahb_vip/ahb_monitor.sv(135) @ 365000: uvm_test_top.env.ahb_agt.monitor [ahb_monitor] Send trans from monitor to scoreboard: 
# ---------------------------------------------------
# Name           Type             Size  Value        
# ---------------------------------------------------
# trans          ahb_transaction  -     @1526        
#   xact_type    xact_type_enum   1     WRITE        
#   xfer_size    hsize_e          3     HSIZE_WORD   
#   burst_type   hburst_e         3     HBURST_SINGLE
#   addr         integral         10    'h4c         
#   data         integral         32    'h1a20b0c5   
#   write        integral         1     1            
#   wdata        integral         32    'h1a20b0c5   
#   rdata        integral         32    'h0          
#   size         hsize_e          3     HSIZE_WORD   
#   burst        hburst_e         3     HBURST_SINGLE
#   prot         integral         4     'h0          
#   lock         integral         1     'h0          
#   resp         hresp_e          1     HRESP_OKAY   
#   num_beats    integral         32    'd1          
#   idle_cycles  integral         32    'd0          
#   addr_q       da(integral)     0     -            
#   wdata_q      da(integral)     1     -            
#     [0]        integral         32    'h1a20b0c5   
#   rdata_q      da(integral)     0     -            
#   resp_q       array(hresp_e)   1     -            
#     [0]        hresp_e          1     HRESP_OKAY   
#   htrans       htrans_e         2     HTRANS_NONSEQ
#   trans        htrans_e         2     HTRANS_NONSEQ
#   beat_addr    da(integral)     1     -            
#     [0]        integral         10    'h4c         
#   beat_wdata   da(integral)     1     -            
#     [0]        integral         32    'h1a20b0c5   
#   beat_rdata   da(integral)     0     -            
#   beat_resp    array(hresp_e)   1     -            
#     [0]        hresp_e          1     HRESP_OKAY   
#   beat_index   integral         32    'd0          
# ---------------------------------------------------
# 
# UVM_INFO ./../regmodel/eth_reg2ahb_adapter.sv(46) @ 365000: reporter [eth_reg2ahb_adapter] bus2reg: address = 0x4c, data = 0x1a20b0c5, kind = UVM_WRITE, status = UVM_IS_OK
# UVM_INFO /home/venus/QuestaSim/uvm-1.2/src/reg/uvm_reg_predictor.svh(218) @ 365000: uvm_test_top.env.ahb_predictor [REG_PREDICT] Observed WRITE transaction to register regmodel.TX_DATA: value='h1a20b0c5 : updated value = 'h1a20b0c5
# UVM_INFO ./../vip/ahb_vip/ahb_driver.sv(47) @ 365000: uvm_test_top.env.ahb_agt.driver [run_phase] Completed WRITE transaction at addr 0x4c and data: 0x1a20b0c5
# UVM_INFO ./../regmodel/eth_reg2ahb_adapter.sv(46) @ 365000: reporter [eth_reg2ahb_adapter] bus2reg: address = 0x4c, data = 0x1a20b0c5, kind = UVM_WRITE, status = UVM_IS_OK
# UVM_INFO @ 365000: reporter [RegModel] Wrote register via map regmodel.ahb_map: regmodel.TX_DATA=0x1a20b0c5
# UVM_INFO ./../regmodel/eth_reg2ahb_adapter.sv(31) @ 365000: reporter [eth_reg2ahb_adapter] reg2bus: address = 0x4c, data = 0x24645383, kind = WRITE
# UVM_INFO ./../vip/ahb_vip/ahb_driver.sv(28) @ 365000: uvm_test_top.env.ahb_agt.driver [run_phase] Start WRITE transaction - ADRRESS: 0x4c
# UVM_INFO ./../vip/ahb_vip/ahb_monitor.sv(135) @ 385000: uvm_test_top.env.ahb_agt.monitor [ahb_monitor] Send trans from monitor to scoreboard: 
# ---------------------------------------------------
# Name           Type             Size  Value        
# ---------------------------------------------------
# trans          ahb_transaction  -     @1568        
#   xact_type    xact_type_enum   1     WRITE        
#   xfer_size    hsize_e          3     HSIZE_WORD   
#   burst_type   hburst_e         3     HBURST_SINGLE
#   addr         integral         10    'h4c         
#   data         integral         32    'h24645383   
#   write        integral         1     1            
#   wdata        integral         32    'h24645383   
#   rdata        integral         32    'h0          
#   size         hsize_e          3     HSIZE_WORD   
#   burst        hburst_e         3     HBURST_SINGLE
#   prot         integral         4     'h0          
#   lock         integral         1     'h0          
#   resp         hresp_e          1     HRESP_OKAY   
#   num_beats    integral         32    'd1          
#   idle_cycles  integral         32    'd0          
#   addr_q       da(integral)     0     -            
#   wdata_q      da(integral)     1     -            
#     [0]        integral         32    'h24645383   
#   rdata_q      da(integral)     0     -            
#   resp_q       array(hresp_e)   1     -            
#     [0]        hresp_e          1     HRESP_OKAY   
#   htrans       htrans_e         2     HTRANS_NONSEQ
#   trans        htrans_e         2     HTRANS_NONSEQ
#   beat_addr    da(integral)     1     -            
#     [0]        integral         10    'h4c         
#   beat_wdata   da(integral)     1     -            
#     [0]        integral         32    'h24645383   
#   beat_rdata   da(integral)     0     -            
#   beat_resp    array(hresp_e)   1     -            
#     [0]        hresp_e          1     HRESP_OKAY   
#   beat_index   integral         32    'd0          
# ---------------------------------------------------
# 
# UVM_INFO ./../regmodel/eth_reg2ahb_adapter.sv(46) @ 385000: reporter [eth_reg2ahb_adapter] bus2reg: address = 0x4c, data = 0x24645383, kind = UVM_WRITE, status = UVM_IS_OK
# UVM_INFO /home/venus/QuestaSim/uvm-1.2/src/reg/uvm_reg_predictor.svh(218) @ 385000: uvm_test_top.env.ahb_predictor [REG_PREDICT] Observed WRITE transaction to register regmodel.TX_DATA: value='h24645383 : updated value = 'h24645383
# UVM_INFO ./../vip/ahb_vip/ahb_driver.sv(47) @ 385000: uvm_test_top.env.ahb_agt.driver [run_phase] Completed WRITE transaction at addr 0x4c and data: 0x24645383
# UVM_INFO ./../regmodel/eth_reg2ahb_adapter.sv(46) @ 385000: reporter [eth_reg2ahb_adapter] bus2reg: address = 0x4c, data = 0x24645383, kind = UVM_WRITE, status = UVM_IS_OK
# UVM_INFO @ 385000: reporter [RegModel] Wrote register via map regmodel.ahb_map: regmodel.TX_DATA=0x24645383
# UVM_INFO ./../regmodel/eth_reg2ahb_adapter.sv(31) @ 385000: reporter [eth_reg2ahb_adapter] reg2bus: address = 0x4c, data = 0x35824904, kind = WRITE
# UVM_INFO ./../vip/ahb_vip/ahb_driver.sv(28) @ 385000: uvm_test_top.env.ahb_agt.driver [run_phase] Start WRITE transaction - ADRRESS: 0x4c
# UVM_INFO ./../vip/ahb_vip/ahb_monitor.sv(135) @ 405000: uvm_test_top.env.ahb_agt.monitor [ahb_monitor] Send trans from monitor to scoreboard: 
# ---------------------------------------------------
# Name           Type             Size  Value        
# ---------------------------------------------------
# trans          ahb_transaction  -     @1610        
#   xact_type    xact_type_enum   1     WRITE        
#   xfer_size    hsize_e          3     HSIZE_WORD   
#   burst_type   hburst_e         3     HBURST_SINGLE
#   addr         integral         10    'h4c         
#   data         integral         32    'h35824904   
#   write        integral         1     1            
#   wdata        integral         32    'h35824904   
#   rdata        integral         32    'h0          
#   size         hsize_e          3     HSIZE_WORD   
#   burst        hburst_e         3     HBURST_SINGLE
#   prot         integral         4     'h0          
#   lock         integral         1     'h0          
#   resp         hresp_e          1     HRESP_OKAY   
#   num_beats    integral         32    'd1          
#   idle_cycles  integral         32    'd0          
#   addr_q       da(integral)     0     -            
#   wdata_q      da(integral)     1     -            
#     [0]        integral         32    'h35824904   
#   rdata_q      da(integral)     0     -            
#   resp_q       array(hresp_e)   1     -            
#     [0]        hresp_e          1     HRESP_OKAY   
#   htrans       htrans_e         2     HTRANS_NONSEQ
#   trans        htrans_e         2     HTRANS_NONSEQ
#   beat_addr    da(integral)     1     -            
#     [0]        integral         10    'h4c         
#   beat_wdata   da(integral)     1     -            
#     [0]        integral         32    'h35824904   
#   beat_rdata   da(integral)     0     -            
#   beat_resp    array(hresp_e)   1     -            
#     [0]        hresp_e          1     HRESP_OKAY   
#   beat_index   integral         32    'd0          
# ---------------------------------------------------
# 
# UVM_INFO ./../regmodel/eth_reg2ahb_adapter.sv(46) @ 405000: reporter [eth_reg2ahb_adapter] bus2reg: address = 0x4c, data = 0x35824904, kind = UVM_WRITE, status = UVM_IS_OK
# UVM_INFO /home/venus/QuestaSim/uvm-1.2/src/reg/uvm_reg_predictor.svh(218) @ 405000: uvm_test_top.env.ahb_predictor [REG_PREDICT] Observed WRITE transaction to register regmodel.TX_DATA: value='h35824904 : updated value = 'h35824904
# UVM_INFO ./../vip/ahb_vip/ahb_driver.sv(47) @ 405000: uvm_test_top.env.ahb_agt.driver [run_phase] Completed WRITE transaction at addr 0x4c and data: 0x35824904
# UVM_INFO ./../regmodel/eth_reg2ahb_adapter.sv(46) @ 405000: reporter [eth_reg2ahb_adapter] bus2reg: address = 0x4c, data = 0x35824904, kind = UVM_WRITE, status = UVM_IS_OK
# UVM_INFO @ 405000: reporter [RegModel] Wrote register via map regmodel.ahb_map: regmodel.TX_DATA=0x35824904
# UVM_INFO ./../regmodel/eth_reg2ahb_adapter.sv(31) @ 405000: reporter [eth_reg2ahb_adapter] reg2bus: address = 0x4c, data = 0x4dd78a09, kind = WRITE
# UVM_INFO ./../vip/ahb_vip/ahb_driver.sv(28) @ 405000: uvm_test_top.env.ahb_agt.driver [run_phase] Start WRITE transaction - ADRRESS: 0x4c
# UVM_INFO ./../vip/ahb_vip/ahb_monitor.sv(135) @ 425000: uvm_test_top.env.ahb_agt.monitor [ahb_monitor] Send trans from monitor to scoreboard: 
# ---------------------------------------------------
# Name           Type             Size  Value        
# ---------------------------------------------------
# trans          ahb_transaction  -     @1652        
#   xact_type    xact_type_enum   1     WRITE        
#   xfer_size    hsize_e          3     HSIZE_WORD   
#   burst_type   hburst_e         3     HBURST_SINGLE
#   addr         integral         10    'h4c         
#   data         integral         32    'h4dd78a09   
#   write        integral         1     1            
#   wdata        integral         32    'h4dd78a09   
#   rdata        integral         32    'h0          
#   size         hsize_e          3     HSIZE_WORD   
#   burst        hburst_e         3     HBURST_SINGLE
#   prot         integral         4     'h0          
#   lock         integral         1     'h0          
#   resp         hresp_e          1     HRESP_OKAY   
#   num_beats    integral         32    'd1          
#   idle_cycles  integral         32    'd0          
#   addr_q       da(integral)     0     -            
#   wdata_q      da(integral)     1     -            
#     [0]        integral         32    'h4dd78a09   
#   rdata_q      da(integral)     0     -            
#   resp_q       array(hresp_e)   1     -            
#     [0]        hresp_e          1     HRESP_OKAY   
#   htrans       htrans_e         2     HTRANS_NONSEQ
#   trans        htrans_e         2     HTRANS_NONSEQ
#   beat_addr    da(integral)     1     -            
#     [0]        integral         10    'h4c         
#   beat_wdata   da(integral)     1     -            
#     [0]        integral         32    'h4dd78a09   
#   beat_rdata   da(integral)     0     -            
#   beat_resp    array(hresp_e)   1     -            
#     [0]        hresp_e          1     HRESP_OKAY   
#   beat_index   integral         32    'd0          
# ---------------------------------------------------
# 
# UVM_INFO ./../regmodel/eth_reg2ahb_adapter.sv(46) @ 425000: reporter [eth_reg2ahb_adapter] bus2reg: address = 0x4c, data = 0x4dd78a09, kind = UVM_WRITE, status = UVM_IS_OK
# UVM_INFO /home/venus/QuestaSim/uvm-1.2/src/reg/uvm_reg_predictor.svh(218) @ 425000: uvm_test_top.env.ahb_predictor [REG_PREDICT] Observed WRITE transaction to register regmodel.TX_DATA: value='h4dd78a09 : updated value = 'h4dd78a09
# UVM_INFO ./../vip/ahb_vip/ahb_driver.sv(47) @ 425000: uvm_test_top.env.ahb_agt.driver [run_phase] Completed WRITE transaction at addr 0x4c and data: 0x4dd78a09
# UVM_INFO ./../regmodel/eth_reg2ahb_adapter.sv(46) @ 425000: reporter [eth_reg2ahb_adapter] bus2reg: address = 0x4c, data = 0x4dd78a09, kind = UVM_WRITE, status = UVM_IS_OK
# UVM_INFO @ 425000: reporter [RegModel] Wrote register via map regmodel.ahb_map: regmodel.TX_DATA=0x4dd78a09
# UVM_INFO ./../regmodel/eth_reg2ahb_adapter.sv(31) @ 425000: reporter [eth_reg2ahb_adapter] reg2bus: address = 0x4c, data = 0x2d0f4798, kind = WRITE
# UVM_INFO ./../vip/ahb_vip/ahb_driver.sv(28) @ 425000: uvm_test_top.env.ahb_agt.driver [run_phase] Start WRITE transaction - ADRRESS: 0x4c
# UVM_INFO ./../vip/ahb_vip/ahb_monitor.sv(135) @ 445000: uvm_test_top.env.ahb_agt.monitor [ahb_monitor] Send trans from monitor to scoreboard: 
# ---------------------------------------------------
# Name           Type             Size  Value        
# ---------------------------------------------------
# trans          ahb_transaction  -     @1694        
#   xact_type    xact_type_enum   1     WRITE        
#   xfer_size    hsize_e          3     HSIZE_WORD   
#   burst_type   hburst_e         3     HBURST_SINGLE
#   addr         integral         10    'h4c         
#   data         integral         32    'h2d0f4798   
#   write        integral         1     1            
#   wdata        integral         32    'h2d0f4798   
#   rdata        integral         32    'h0          
#   size         hsize_e          3     HSIZE_WORD   
#   burst        hburst_e         3     HBURST_SINGLE
#   prot         integral         4     'h0          
#   lock         integral         1     'h0          
#   resp         hresp_e          1     HRESP_OKAY   
#   num_beats    integral         32    'd1          
#   idle_cycles  integral         32    'd0          
#   addr_q       da(integral)     0     -            
#   wdata_q      da(integral)     1     -            
#     [0]        integral         32    'h2d0f4798   
#   rdata_q      da(integral)     0     -            
#   resp_q       array(hresp_e)   1     -            
#     [0]        hresp_e          1     HRESP_OKAY   
#   htrans       htrans_e         2     HTRANS_NONSEQ
#   trans        htrans_e         2     HTRANS_NONSEQ
#   beat_addr    da(integral)     1     -            
#     [0]        integral         10    'h4c         
#   beat_wdata   da(integral)     1     -            
#     [0]        integral         32    'h2d0f4798   
#   beat_rdata   da(integral)     0     -            
#   beat_resp    array(hresp_e)   1     -            
#     [0]        hresp_e          1     HRESP_OKAY   
#   beat_index   integral         32    'd0          
# ---------------------------------------------------
# 
# UVM_INFO ./../regmodel/eth_reg2ahb_adapter.sv(46) @ 445000: reporter [eth_reg2ahb_adapter] bus2reg: address = 0x4c, data = 0x2d0f4798, kind = UVM_WRITE, status = UVM_IS_OK
# UVM_INFO /home/venus/QuestaSim/uvm-1.2/src/reg/uvm_reg_predictor.svh(218) @ 445000: uvm_test_top.env.ahb_predictor [REG_PREDICT] Observed WRITE transaction to register regmodel.TX_DATA: value='h2d0f4798 : updated value = 'h2d0f4798
# UVM_INFO ./../vip/ahb_vip/ahb_driver.sv(47) @ 445000: uvm_test_top.env.ahb_agt.driver [run_phase] Completed WRITE transaction at addr 0x4c and data: 0x2d0f4798
# UVM_INFO ./../regmodel/eth_reg2ahb_adapter.sv(46) @ 445000: reporter [eth_reg2ahb_adapter] bus2reg: address = 0x4c, data = 0x2d0f4798, kind = UVM_WRITE, status = UVM_IS_OK
# UVM_INFO @ 445000: reporter [RegModel] Wrote register via map regmodel.ahb_map: regmodel.TX_DATA=0x2d0f4798
# UVM_INFO ./../regmodel/eth_reg2ahb_adapter.sv(31) @ 445000: reporter [eth_reg2ahb_adapter] reg2bus: address = 0x4c, data = 0xb5e8d8c0, kind = WRITE
# UVM_INFO ./../vip/ahb_vip/ahb_driver.sv(28) @ 445000: uvm_test_top.env.ahb_agt.driver [run_phase] Start WRITE transaction - ADRRESS: 0x4c
# UVM_INFO ./../vip/ahb_vip/ahb_monitor.sv(135) @ 465000: uvm_test_top.env.ahb_agt.monitor [ahb_monitor] Send trans from monitor to scoreboard: 
# ---------------------------------------------------
# Name           Type             Size  Value        
# ---------------------------------------------------
# trans          ahb_transaction  -     @1736        
#   xact_type    xact_type_enum   1     WRITE        
#   xfer_size    hsize_e          3     HSIZE_WORD   
#   burst_type   hburst_e         3     HBURST_SINGLE
#   addr         integral         10    'h4c         
#   data         integral         32    'hb5e8d8c0   
#   write        integral         1     1            
#   wdata        integral         32    'hb5e8d8c0   
#   rdata        integral         32    'h0          
#   size         hsize_e          3     HSIZE_WORD   
#   burst        hburst_e         3     HBURST_SINGLE
#   prot         integral         4     'h0          
#   lock         integral         1     'h0          
#   resp         hresp_e          1     HRESP_OKAY   
#   num_beats    integral         32    'd1          
#   idle_cycles  integral         32    'd0          
#   addr_q       da(integral)     0     -            
#   wdata_q      da(integral)     1     -            
#     [0]        integral         32    'hb5e8d8c0   
#   rdata_q      da(integral)     0     -            
#   resp_q       array(hresp_e)   1     -            
#     [0]        hresp_e          1     HRESP_OKAY   
#   htrans       htrans_e         2     HTRANS_NONSEQ
#   trans        htrans_e         2     HTRANS_NONSEQ
#   beat_addr    da(integral)     1     -            
#     [0]        integral         10    'h4c         
#   beat_wdata   da(integral)     1     -            
#     [0]        integral         32    'hb5e8d8c0   
#   beat_rdata   da(integral)     0     -            
#   beat_resp    array(hresp_e)   1     -            
#     [0]        hresp_e          1     HRESP_OKAY   
#   beat_index   integral         32    'd0          
# ---------------------------------------------------
# 
# UVM_INFO ./../regmodel/eth_reg2ahb_adapter.sv(46) @ 465000: reporter [eth_reg2ahb_adapter] bus2reg: address = 0x4c, data = 0xb5e8d8c0, kind = UVM_WRITE, status = UVM_IS_OK
# UVM_INFO /home/venus/QuestaSim/uvm-1.2/src/reg/uvm_reg_predictor.svh(218) @ 465000: uvm_test_top.env.ahb_predictor [REG_PREDICT] Observed WRITE transaction to register regmodel.TX_DATA: value='hb5e8d8c0 : updated value = 'hb5e8d8c0
# UVM_INFO ./../vip/ahb_vip/ahb_driver.sv(47) @ 465000: uvm_test_top.env.ahb_agt.driver [run_phase] Completed WRITE transaction at addr 0x4c and data: 0xb5e8d8c0
# UVM_INFO ./../regmodel/eth_reg2ahb_adapter.sv(46) @ 465000: reporter [eth_reg2ahb_adapter] bus2reg: address = 0x4c, data = 0xb5e8d8c0, kind = UVM_WRITE, status = UVM_IS_OK
# UVM_INFO @ 465000: reporter [RegModel] Wrote register via map regmodel.ahb_map: regmodel.TX_DATA=0xb5e8d8c0
# UVM_INFO ./../regmodel/eth_reg2ahb_adapter.sv(31) @ 465000: reporter [eth_reg2ahb_adapter] reg2bus: address = 0x4c, data = 0x9a29ae74, kind = WRITE
# UVM_INFO ./../vip/ahb_vip/ahb_driver.sv(28) @ 465000: uvm_test_top.env.ahb_agt.driver [run_phase] Start WRITE transaction - ADRRESS: 0x4c
# UVM_INFO ./../vip/ahb_vip/ahb_monitor.sv(135) @ 485000: uvm_test_top.env.ahb_agt.monitor [ahb_monitor] Send trans from monitor to scoreboard: 
# ---------------------------------------------------
# Name           Type             Size  Value        
# ---------------------------------------------------
# trans          ahb_transaction  -     @1778        
#   xact_type    xact_type_enum   1     WRITE        
#   xfer_size    hsize_e          3     HSIZE_WORD   
#   burst_type   hburst_e         3     HBURST_SINGLE
#   addr         integral         10    'h4c         
#   data         integral         32    'h9a29ae74   
#   write        integral         1     1            
#   wdata        integral         32    'h9a29ae74   
#   rdata        integral         32    'h0          
#   size         hsize_e          3     HSIZE_WORD   
#   burst        hburst_e         3     HBURST_SINGLE
#   prot         integral         4     'h0          
#   lock         integral         1     'h0          
#   resp         hresp_e          1     HRESP_OKAY   
#   num_beats    integral         32    'd1          
#   idle_cycles  integral         32    'd0          
#   addr_q       da(integral)     0     -            
#   wdata_q      da(integral)     1     -            
#     [0]        integral         32    'h9a29ae74   
#   rdata_q      da(integral)     0     -            
#   resp_q       array(hresp_e)   1     -            
#     [0]        hresp_e          1     HRESP_OKAY   
#   htrans       htrans_e         2     HTRANS_NONSEQ
#   trans        htrans_e         2     HTRANS_NONSEQ
#   beat_addr    da(integral)     1     -            
#     [0]        integral         10    'h4c         
#   beat_wdata   da(integral)     1     -            
#     [0]        integral         32    'h9a29ae74   
#   beat_rdata   da(integral)     0     -            
#   beat_resp    array(hresp_e)   1     -            
#     [0]        hresp_e          1     HRESP_OKAY   
#   beat_index   integral         32    'd0          
# ---------------------------------------------------
# 
# UVM_INFO ./../regmodel/eth_reg2ahb_adapter.sv(46) @ 485000: reporter [eth_reg2ahb_adapter] bus2reg: address = 0x4c, data = 0x9a29ae74, kind = UVM_WRITE, status = UVM_IS_OK
# UVM_INFO /home/venus/QuestaSim/uvm-1.2/src/reg/uvm_reg_predictor.svh(218) @ 485000: uvm_test_top.env.ahb_predictor [REG_PREDICT] Observed WRITE transaction to register regmodel.TX_DATA: value='h9a29ae74 : updated value = 'h9a29ae74
# UVM_INFO ./../vip/ahb_vip/ahb_driver.sv(47) @ 485000: uvm_test_top.env.ahb_agt.driver [run_phase] Completed WRITE transaction at addr 0x4c and data: 0x9a29ae74
# UVM_INFO ./../regmodel/eth_reg2ahb_adapter.sv(46) @ 485000: reporter [eth_reg2ahb_adapter] bus2reg: address = 0x4c, data = 0x9a29ae74, kind = UVM_WRITE, status = UVM_IS_OK
# UVM_INFO @ 485000: reporter [RegModel] Wrote register via map regmodel.ahb_map: regmodel.TX_DATA=0x9a29ae74
# UVM_INFO ./../regmodel/eth_reg2ahb_adapter.sv(31) @ 485000: reporter [eth_reg2ahb_adapter] reg2bus: address = 0x4c, data = 0x2741eff1, kind = WRITE
# UVM_INFO ./../vip/ahb_vip/ahb_driver.sv(28) @ 485000: uvm_test_top.env.ahb_agt.driver [run_phase] Start WRITE transaction - ADRRESS: 0x4c
# UVM_INFO ./../vip/ahb_vip/ahb_monitor.sv(135) @ 505000: uvm_test_top.env.ahb_agt.monitor [ahb_monitor] Send trans from monitor to scoreboard: 
# ---------------------------------------------------
# Name           Type             Size  Value        
# ---------------------------------------------------
# trans          ahb_transaction  -     @1820        
#   xact_type    xact_type_enum   1     WRITE        
#   xfer_size    hsize_e          3     HSIZE_WORD   
#   burst_type   hburst_e         3     HBURST_SINGLE
#   addr         integral         10    'h4c         
#   data         integral         32    'h2741eff1   
#   write        integral         1     1            
#   wdata        integral         32    'h2741eff1   
#   rdata        integral         32    'h0          
#   size         hsize_e          3     HSIZE_WORD   
#   burst        hburst_e         3     HBURST_SINGLE
#   prot         integral         4     'h0          
#   lock         integral         1     'h0          
#   resp         hresp_e          1     HRESP_OKAY   
#   num_beats    integral         32    'd1          
#   idle_cycles  integral         32    'd0          
#   addr_q       da(integral)     0     -            
#   wdata_q      da(integral)     1     -            
#     [0]        integral         32    'h2741eff1   
#   rdata_q      da(integral)     0     -            
#   resp_q       array(hresp_e)   1     -            
#     [0]        hresp_e          1     HRESP_OKAY   
#   htrans       htrans_e         2     HTRANS_NONSEQ
#   trans        htrans_e         2     HTRANS_NONSEQ
#   beat_addr    da(integral)     1     -            
#     [0]        integral         10    'h4c         
#   beat_wdata   da(integral)     1     -            
#     [0]        integral         32    'h2741eff1   
#   beat_rdata   da(integral)     0     -            
#   beat_resp    array(hresp_e)   1     -            
#     [0]        hresp_e          1     HRESP_OKAY   
#   beat_index   integral         32    'd0          
# ---------------------------------------------------
# 
# UVM_INFO ./../regmodel/eth_reg2ahb_adapter.sv(46) @ 505000: reporter [eth_reg2ahb_adapter] bus2reg: address = 0x4c, data = 0x2741eff1, kind = UVM_WRITE, status = UVM_IS_OK
# UVM_INFO /home/venus/QuestaSim/uvm-1.2/src/reg/uvm_reg_predictor.svh(218) @ 505000: uvm_test_top.env.ahb_predictor [REG_PREDICT] Observed WRITE transaction to register regmodel.TX_DATA: value='h2741eff1 : updated value = 'h2741eff1
# UVM_INFO ./../vip/ahb_vip/ahb_driver.sv(47) @ 505000: uvm_test_top.env.ahb_agt.driver [run_phase] Completed WRITE transaction at addr 0x4c and data: 0x2741eff1
# UVM_INFO ./../regmodel/eth_reg2ahb_adapter.sv(46) @ 505000: reporter [eth_reg2ahb_adapter] bus2reg: address = 0x4c, data = 0x2741eff1, kind = UVM_WRITE, status = UVM_IS_OK
# UVM_INFO @ 505000: reporter [RegModel] Wrote register via map regmodel.ahb_map: regmodel.TX_DATA=0x2741eff1
# UVM_INFO ./../regmodel/eth_reg2ahb_adapter.sv(31) @ 505000: reporter [eth_reg2ahb_adapter] reg2bus: address = 0x4c, data = 0x67f9cfc, kind = WRITE
# UVM_INFO ./../vip/ahb_vip/ahb_driver.sv(28) @ 505000: uvm_test_top.env.ahb_agt.driver [run_phase] Start WRITE transaction - ADRRESS: 0x4c
# UVM_INFO ./../vip/ahb_vip/ahb_monitor.sv(135) @ 525000: uvm_test_top.env.ahb_agt.monitor [ahb_monitor] Send trans from monitor to scoreboard: 
# ---------------------------------------------------
# Name           Type             Size  Value        
# ---------------------------------------------------
# trans          ahb_transaction  -     @1862        
#   xact_type    xact_type_enum   1     WRITE        
#   xfer_size    hsize_e          3     HSIZE_WORD   
#   burst_type   hburst_e         3     HBURST_SINGLE
#   addr         integral         10    'h4c         
#   data         integral         32    'h67f9cfc    
#   write        integral         1     1            
#   wdata        integral         32    'h67f9cfc    
#   rdata        integral         32    'h0          
#   size         hsize_e          3     HSIZE_WORD   
#   burst        hburst_e         3     HBURST_SINGLE
#   prot         integral         4     'h0          
#   lock         integral         1     'h0          
#   resp         hresp_e          1     HRESP_OKAY   
#   num_beats    integral         32    'd1          
#   idle_cycles  integral         32    'd0          
#   addr_q       da(integral)     0     -            
#   wdata_q      da(integral)     1     -            
#     [0]        integral         32    'h67f9cfc    
#   rdata_q      da(integral)     0     -            
#   resp_q       array(hresp_e)   1     -            
#     [0]        hresp_e          1     HRESP_OKAY   
#   htrans       htrans_e         2     HTRANS_NONSEQ
#   trans        htrans_e         2     HTRANS_NONSEQ
#   beat_addr    da(integral)     1     -            
#     [0]        integral         10    'h4c         
#   beat_wdata   da(integral)     1     -            
#     [0]        integral         32    'h67f9cfc    
#   beat_rdata   da(integral)     0     -            
#   beat_resp    array(hresp_e)   1     -            
#     [0]        hresp_e          1     HRESP_OKAY   
#   beat_index   integral         32    'd0          
# ---------------------------------------------------
# 
# UVM_INFO ./../regmodel/eth_reg2ahb_adapter.sv(46) @ 525000: reporter [eth_reg2ahb_adapter] bus2reg: address = 0x4c, data = 0x67f9cfc, kind = UVM_WRITE, status = UVM_IS_OK
# UVM_INFO /home/venus/QuestaSim/uvm-1.2/src/reg/uvm_reg_predictor.svh(218) @ 525000: uvm_test_top.env.ahb_predictor [REG_PREDICT] Observed WRITE transaction to register regmodel.TX_DATA: value='h67f9cfc : updated value = 'h67f9cfc
# UVM_INFO ./../vip/ahb_vip/ahb_driver.sv(47) @ 525000: uvm_test_top.env.ahb_agt.driver [run_phase] Completed WRITE transaction at addr 0x4c and data: 0x67f9cfc
# UVM_INFO ./../regmodel/eth_reg2ahb_adapter.sv(46) @ 525000: reporter [eth_reg2ahb_adapter] bus2reg: address = 0x4c, data = 0x67f9cfc, kind = UVM_WRITE, status = UVM_IS_OK
# UVM_INFO @ 525000: reporter [RegModel] Wrote register via map regmodel.ahb_map: regmodel.TX_DATA=0x67f9cfc
# UVM_INFO ./../regmodel/eth_reg2ahb_adapter.sv(31) @ 525000: reporter [eth_reg2ahb_adapter] reg2bus: address = 0x4c, data = 0x96a0ac0, kind = WRITE
# UVM_INFO ./../vip/ahb_vip/ahb_driver.sv(28) @ 525000: uvm_test_top.env.ahb_agt.driver [run_phase] Start WRITE transaction - ADRRESS: 0x4c
# UVM_INFO ./../vip/ahb_vip/ahb_monitor.sv(135) @ 545000: uvm_test_top.env.ahb_agt.monitor [ahb_monitor] Send trans from monitor to scoreboard: 
# ---------------------------------------------------
# Name           Type             Size  Value        
# ---------------------------------------------------
# trans          ahb_transaction  -     @1904        
#   xact_type    xact_type_enum   1     WRITE        
#   xfer_size    hsize_e          3     HSIZE_WORD   
#   burst_type   hburst_e         3     HBURST_SINGLE
#   addr         integral         10    'h4c         
#   data         integral         32    'h96a0ac0    
#   write        integral         1     1            
#   wdata        integral         32    'h96a0ac0    
#   rdata        integral         32    'h0          
#   size         hsize_e          3     HSIZE_WORD   
#   burst        hburst_e         3     HBURST_SINGLE
#   prot         integral         4     'h0          
#   lock         integral         1     'h0          
#   resp         hresp_e          1     HRESP_OKAY   
#   num_beats    integral         32    'd1          
#   idle_cycles  integral         32    'd0          
#   addr_q       da(integral)     0     -            
#   wdata_q      da(integral)     1     -            
#     [0]        integral         32    'h96a0ac0    
#   rdata_q      da(integral)     0     -            
#   resp_q       array(hresp_e)   1     -            
#     [0]        hresp_e          1     HRESP_OKAY   
#   htrans       htrans_e         2     HTRANS_NONSEQ
#   trans        htrans_e         2     HTRANS_NONSEQ
#   beat_addr    da(integral)     1     -            
#     [0]        integral         10    'h4c         
#   beat_wdata   da(integral)     1     -            
#     [0]        integral         32    'h96a0ac0    
#   beat_rdata   da(integral)     0     -            
#   beat_resp    array(hresp_e)   1     -            
#     [0]        hresp_e          1     HRESP_OKAY   
#   beat_index   integral         32    'd0          
# ---------------------------------------------------
# 
# UVM_INFO ./../regmodel/eth_reg2ahb_adapter.sv(46) @ 545000: reporter [eth_reg2ahb_adapter] bus2reg: address = 0x4c, data = 0x96a0ac0, kind = UVM_WRITE, status = UVM_IS_OK
# UVM_INFO /home/venus/QuestaSim/uvm-1.2/src/reg/uvm_reg_predictor.svh(218) @ 545000: uvm_test_top.env.ahb_predictor [REG_PREDICT] Observed WRITE transaction to register regmodel.TX_DATA: value='h96a0ac0 : updated value = 'h96a0ac0
# UVM_INFO ./../vip/ahb_vip/ahb_driver.sv(47) @ 545000: uvm_test_top.env.ahb_agt.driver [run_phase] Completed WRITE transaction at addr 0x4c and data: 0x96a0ac0
# UVM_INFO ./../regmodel/eth_reg2ahb_adapter.sv(46) @ 545000: reporter [eth_reg2ahb_adapter] bus2reg: address = 0x4c, data = 0x96a0ac0, kind = UVM_WRITE, status = UVM_IS_OK
# UVM_INFO @ 545000: reporter [RegModel] Wrote register via map regmodel.ahb_map: regmodel.TX_DATA=0x96a0ac0
# UVM_INFO ./../regmodel/eth_reg2ahb_adapter.sv(31) @ 545000: reporter [eth_reg2ahb_adapter] reg2bus: address = 0x4c, data = 0xaa956916, kind = WRITE
# UVM_INFO ./../vip/ahb_vip/ahb_driver.sv(28) @ 545000: uvm_test_top.env.ahb_agt.driver [run_phase] Start WRITE transaction - ADRRESS: 0x4c
# UVM_INFO ./../vip/ahb_vip/ahb_monitor.sv(135) @ 565000: uvm_test_top.env.ahb_agt.monitor [ahb_monitor] Send trans from monitor to scoreboard: 
# ---------------------------------------------------
# Name           Type             Size  Value        
# ---------------------------------------------------
# trans          ahb_transaction  -     @1946        
#   xact_type    xact_type_enum   1     WRITE        
#   xfer_size    hsize_e          3     HSIZE_WORD   
#   burst_type   hburst_e         3     HBURST_SINGLE
#   addr         integral         10    'h4c         
#   data         integral         32    'haa956916   
#   write        integral         1     1            
#   wdata        integral         32    'haa956916   
#   rdata        integral         32    'h0          
#   size         hsize_e          3     HSIZE_WORD   
#   burst        hburst_e         3     HBURST_SINGLE
#   prot         integral         4     'h0          
#   lock         integral         1     'h0          
#   resp         hresp_e          1     HRESP_OKAY   
#   num_beats    integral         32    'd1          
#   idle_cycles  integral         32    'd0          
#   addr_q       da(integral)     0     -            
#   wdata_q      da(integral)     1     -            
#     [0]        integral         32    'haa956916   
#   rdata_q      da(integral)     0     -            
#   resp_q       array(hresp_e)   1     -            
#     [0]        hresp_e          1     HRESP_OKAY   
#   htrans       htrans_e         2     HTRANS_NONSEQ
#   trans        htrans_e         2     HTRANS_NONSEQ
#   beat_addr    da(integral)     1     -            
#     [0]        integral         10    'h4c         
#   beat_wdata   da(integral)     1     -            
#     [0]        integral         32    'haa956916   
#   beat_rdata   da(integral)     0     -            
#   beat_resp    array(hresp_e)   1     -            
#     [0]        hresp_e          1     HRESP_OKAY   
#   beat_index   integral         32    'd0          
# ---------------------------------------------------
# 
# UVM_INFO ./../regmodel/eth_reg2ahb_adapter.sv(46) @ 565000: reporter [eth_reg2ahb_adapter] bus2reg: address = 0x4c, data = 0xaa956916, kind = UVM_WRITE, status = UVM_IS_OK
# UVM_INFO /home/venus/QuestaSim/uvm-1.2/src/reg/uvm_reg_predictor.svh(218) @ 565000: uvm_test_top.env.ahb_predictor [REG_PREDICT] Observed WRITE transaction to register regmodel.TX_DATA: value='haa956916 : updated value = 'haa956916
# UVM_INFO ./../vip/ahb_vip/ahb_driver.sv(47) @ 565000: uvm_test_top.env.ahb_agt.driver [run_phase] Completed WRITE transaction at addr 0x4c and data: 0xaa956916
# UVM_INFO ./../regmodel/eth_reg2ahb_adapter.sv(46) @ 565000: reporter [eth_reg2ahb_adapter] bus2reg: address = 0x4c, data = 0xaa956916, kind = UVM_WRITE, status = UVM_IS_OK
# UVM_INFO @ 565000: reporter [RegModel] Wrote register via map regmodel.ahb_map: regmodel.TX_DATA=0xaa956916
# UVM_INFO ./../regmodel/eth_reg2ahb_adapter.sv(31) @ 565000: reporter [eth_reg2ahb_adapter] reg2bus: address = 0x4c, data = 0xe2fbd7ad, kind = WRITE
# UVM_INFO ./../vip/ahb_vip/ahb_driver.sv(28) @ 565000: uvm_test_top.env.ahb_agt.driver [run_phase] Start WRITE transaction - ADRRESS: 0x4c
# UVM_INFO ./../vip/ahb_vip/ahb_monitor.sv(135) @ 585000: uvm_test_top.env.ahb_agt.monitor [ahb_monitor] Send trans from monitor to scoreboard: 
# ---------------------------------------------------
# Name           Type             Size  Value        
# ---------------------------------------------------
# trans          ahb_transaction  -     @1988        
#   xact_type    xact_type_enum   1     WRITE        
#   xfer_size    hsize_e          3     HSIZE_WORD   
#   burst_type   hburst_e         3     HBURST_SINGLE
#   addr         integral         10    'h4c         
#   data         integral         32    'he2fbd7ad   
#   write        integral         1     1            
#   wdata        integral         32    'he2fbd7ad   
#   rdata        integral         32    'h0          
#   size         hsize_e          3     HSIZE_WORD   
#   burst        hburst_e         3     HBURST_SINGLE
#   prot         integral         4     'h0          
#   lock         integral         1     'h0          
#   resp         hresp_e          1     HRESP_OKAY   
#   num_beats    integral         32    'd1          
#   idle_cycles  integral         32    'd0          
#   addr_q       da(integral)     0     -            
#   wdata_q      da(integral)     1     -            
#     [0]        integral         32    'he2fbd7ad   
#   rdata_q      da(integral)     0     -            
#   resp_q       array(hresp_e)   1     -            
#     [0]        hresp_e          1     HRESP_OKAY   
#   htrans       htrans_e         2     HTRANS_NONSEQ
#   trans        htrans_e         2     HTRANS_NONSEQ
#   beat_addr    da(integral)     1     -            
#     [0]        integral         10    'h4c         
#   beat_wdata   da(integral)     1     -            
#     [0]        integral         32    'he2fbd7ad   
#   beat_rdata   da(integral)     0     -            
#   beat_resp    array(hresp_e)   1     -            
#     [0]        hresp_e          1     HRESP_OKAY   
#   beat_index   integral         32    'd0          
# ---------------------------------------------------
# 
# UVM_INFO ./../regmodel/eth_reg2ahb_adapter.sv(46) @ 585000: reporter [eth_reg2ahb_adapter] bus2reg: address = 0x4c, data = 0xe2fbd7ad, kind = UVM_WRITE, status = UVM_IS_OK
# UVM_INFO /home/venus/QuestaSim/uvm-1.2/src/reg/uvm_reg_predictor.svh(218) @ 585000: uvm_test_top.env.ahb_predictor [REG_PREDICT] Observed WRITE transaction to register regmodel.TX_DATA: value='he2fbd7ad : updated value = 'he2fbd7ad
# UVM_INFO ./../vip/ahb_vip/ahb_driver.sv(47) @ 585000: uvm_test_top.env.ahb_agt.driver [run_phase] Completed WRITE transaction at addr 0x4c and data: 0xe2fbd7ad
# UVM_INFO ./../regmodel/eth_reg2ahb_adapter.sv(46) @ 585000: reporter [eth_reg2ahb_adapter] bus2reg: address = 0x4c, data = 0xe2fbd7ad, kind = UVM_WRITE, status = UVM_IS_OK
# UVM_INFO @ 585000: reporter [RegModel] Wrote register via map regmodel.ahb_map: regmodel.TX_DATA=0xe2fbd7ad
# UVM_INFO ./../regmodel/eth_reg2ahb_adapter.sv(31) @ 585000: reporter [eth_reg2ahb_adapter] reg2bus: address = 0x4c, data = 0x656e90c3, kind = WRITE
# UVM_INFO ./../vip/ahb_vip/ahb_driver.sv(28) @ 585000: uvm_test_top.env.ahb_agt.driver [run_phase] Start WRITE transaction - ADRRESS: 0x4c
# UVM_INFO ./../vip/ahb_vip/ahb_monitor.sv(135) @ 605000: uvm_test_top.env.ahb_agt.monitor [ahb_monitor] Send trans from monitor to scoreboard: 
# ---------------------------------------------------
# Name           Type             Size  Value        
# ---------------------------------------------------
# trans          ahb_transaction  -     @2030        
#   xact_type    xact_type_enum   1     WRITE        
#   xfer_size    hsize_e          3     HSIZE_WORD   
#   burst_type   hburst_e         3     HBURST_SINGLE
#   addr         integral         10    'h4c         
#   data         integral         32    'h656e90c3   
#   write        integral         1     1            
#   wdata        integral         32    'h656e90c3   
#   rdata        integral         32    'h0          
#   size         hsize_e          3     HSIZE_WORD   
#   burst        hburst_e         3     HBURST_SINGLE
#   prot         integral         4     'h0          
#   lock         integral         1     'h0          
#   resp         hresp_e          1     HRESP_OKAY   
#   num_beats    integral         32    'd1          
#   idle_cycles  integral         32    'd0          
#   addr_q       da(integral)     0     -            
#   wdata_q      da(integral)     1     -            
#     [0]        integral         32    'h656e90c3   
#   rdata_q      da(integral)     0     -            
#   resp_q       array(hresp_e)   1     -            
#     [0]        hresp_e          1     HRESP_OKAY   
#   htrans       htrans_e         2     HTRANS_NONSEQ
#   trans        htrans_e         2     HTRANS_NONSEQ
#   beat_addr    da(integral)     1     -            
#     [0]        integral         10    'h4c         
#   beat_wdata   da(integral)     1     -            
#     [0]        integral         32    'h656e90c3   
#   beat_rdata   da(integral)     0     -            
#   beat_resp    array(hresp_e)   1     -            
#     [0]        hresp_e          1     HRESP_OKAY   
#   beat_index   integral         32    'd0          
# ---------------------------------------------------
# 
# UVM_INFO ./../regmodel/eth_reg2ahb_adapter.sv(46) @ 605000: reporter [eth_reg2ahb_adapter] bus2reg: address = 0x4c, data = 0x656e90c3, kind = UVM_WRITE, status = UVM_IS_OK
# UVM_INFO /home/venus/QuestaSim/uvm-1.2/src/reg/uvm_reg_predictor.svh(218) @ 605000: uvm_test_top.env.ahb_predictor [REG_PREDICT] Observed WRITE transaction to register regmodel.TX_DATA: value='h656e90c3 : updated value = 'h656e90c3
# UVM_INFO ./../vip/ahb_vip/ahb_driver.sv(47) @ 605000: uvm_test_top.env.ahb_agt.driver [run_phase] Completed WRITE transaction at addr 0x4c and data: 0x656e90c3
# UVM_INFO ./../regmodel/eth_reg2ahb_adapter.sv(46) @ 605000: reporter [eth_reg2ahb_adapter] bus2reg: address = 0x4c, data = 0x656e90c3, kind = UVM_WRITE, status = UVM_IS_OK
