# vsim -sv_seed 101228 -coverage -coveranalysis -voptargs="+acc" -assertdebug -c testbench -do "coverage save -codeAll -cvg -onexit full_100M_rx_pause_test_101228.ucdb; log -r /*;run -all;" -l full_100M_rx_pause_test_101228.log "+UVM_TESTNAME=full_100M_rx_pause_test" "+UVM_VERBOSITY=UVM_HIGH" 
# Start time: 13:40:59 on Jun 20,2026
# Loading /tmp/venus@nus-fedora_dpi_7845/linux_x86_64_gcc-15/export_tramp.so
# ** Note: (vsim-8009) Loading existing optimized design _opt1
# //  Questa Sim-64
# //  Version 2021.2_1 linux_x86_64 May 15 2021
# //
# //  Copyright 1991-2021 Mentor Graphics Corporation
# //  All Rights Reserved.
# //
# //  QuestaSim and its associated documentation contain trade
# //  secrets and commercial or financial information that are the property of
# //  Mentor Graphics Corporation and are privileged, confidential,
# //  and exempt from disclosure under the Freedom of Information Act,
# //  5 U.S.C. Section 552. Furthermore, this information
# //  is prohibited from disclosure under the Trade Secrets Act,
# //  18 U.S.C. Section 1905.
# //
# ** Note: (vsim-8785) UVM-aware debugging capabilities will be disabled since no compiled "questa_uvm_pkg" can be found.
# This also means that later if you turn on UVM-aware debugging your debug simulations may have
# different random seeds from your non-debug simulations.
# Loading sv_std.std
# Loading work.ahb_if(fast)
# Loading work.phy_if(fast)
# Loading work.uvm_pkg(fast)
# Loading work.ahb_pkg(fast)
# Loading work.phy_pkg(fast)
# Loading work.seq_pkg(fast)
# Loading work.eth_register_pkg(fast)
# Loading work.eth_regmodel_pkg(fast)
# Loading work.env_pkg(fast)
# Loading work.test_pkg(fast)
# Loading work.testbench(fast)
# Loading work.ahb_if(fast__2)
# Loading work.phy_if(fast__2)
# Loading work.eth_top(fast)
# Loading work.eth_ahb_slave(fast)
# Loading work.eth_register(fast)
# Loading work.eth_sync_level(fast)
# Loading work.eth_sync_level(fast__1)
# Loading work.eth_sync_level(fast__2)
# Loading work.eth_sync_level(fast__3)
# Loading work.eth_tx_frame_buffer(fast)
# Loading work.eth_cdc_pulse(fast)
# Loading work.eth_sync_level(fast__4)
# Loading work.eth_tx_buffer_ctrl(fast)
# Loading work.eth_rx_mac(fast)
# Loading work.eth_rx_controller(fast)
# Loading work.eth_rx_cnt(fast)
# Loading work.eth_crc(fast)
# Loading work.eth_rx_addr_check(fast)
# Loading work.eth_rx_buffer_ctrl(fast)
# Loading work.eth_rx_frame_buffer(fast)
# Loading work.eth_sync_level(fast__5)
# Loading work.eth_rx_pause(fast)
# Loading work.eth_tx_pause(fast)
# Loading work.eth_tx_mac(fast)
# Loading work.eth_tx_cnt(fast)
# Loading work.eth_tx_controller(fast)
# Loading work.eth_backoff_random(fast)
# Compiling /tmp/venus@nus-fedora_dpi_7845/linux_x86_64_gcc-15/exportwrapper.c
# Loading /tmp/venus@nus-fedora_dpi_7845/linux_x86_64_gcc-15/vsim_auto_compile.so
# coverage save -codeAll -cvg -onexit full_100M_rx_pause_test_101228.ucdb
#  log -r /*
# run -all
# UVM_INFO /home/venus/QuestaSim/uvm-1.2/src/base/uvm_root.svh(392) @ 0: reporter [UVM/RELNOTES] 
# ----------------------------------------------------------------
# UVM-1.2
# (C) 2007-2014 Mentor Graphics Corporation
# (C) 2007-2014 Cadence Design Systems, Inc.
# (C) 2006-2014 Synopsys, Inc.
# (C) 2011-2013 Cypress Semiconductor Corp.
# (C) 2013-2014 NVIDIA Corporation
# ----------------------------------------------------------------
# 
#   ***********       IMPORTANT RELEASE NOTES         ************
# 
#   You are using a version of the UVM library that has been compiled
#   with `UVM_NO_DEPRECATED undefined.
#   See http://www.eda.org/svdb/view.php?id=3313 for more details.
# 
#   You are using a version of the UVM library that has been compiled
#   with `UVM_OBJECT_DO_NOT_NEED_CONSTRUCTOR undefined.
#   See http://www.eda.org/svdb/view.php?id=3770 for more details.
# 
#       (Specify +UVM_NO_RELNOTES to turn off this notice)
# 
# UVM_INFO /home/venus/QuestaSim/uvm-1.2/src/base/uvm_root.svh(453) @ 0: reporter [NO_DPI_TSTNAME] UVM_NO_DPI defined--getting UVM_TESTNAME directly, without DPI
# UVM_INFO @ 0: reporter [RNTST] Running test full_100M_rx_pause_test...
# UVM_INFO ./../testcases/eth_base_test.sv(220) @ 0: uvm_test_top [build_phase] Entered...
# UVM_INFO ./../testcases/eth_base_test.sv(237) @ 0: uvm_test_top [build_phase] Exitting...
# UVM_INFO ./../tb/eth_environment.sv(24) @ 0: uvm_test_top.env [build_phase] Entered...
# UVM_INFO ./../tb/eth_environment.sv(52) @ 0: uvm_test_top.env [build_phase] Exitting...
# UVM_INFO ./../vip/ahb_vip/ahb_agent.sv(19) @ 0: uvm_test_top.env.ahb_agt [ahb_agent] Active agent is configued
# UVM_INFO ./../vip/phy_vip/phy_agent.sv(25) @ 0: uvm_test_top.env.phy_agt [phy_agent] Active agent is configured
# UVM_INFO ./../tb/eth_environment.sv(57) @ 0: uvm_test_top.env [connect_phase] Entered...
# UVM_INFO ./../tb/eth_environment.sv(70) @ 0: uvm_test_top.env [connect_phase] Exiting...
# UVM_INFO /home/venus/QuestaSim/uvm-1.2/src/base/uvm_root.svh(579) @ 0: reporter [UVMTOP] UVM testbench topology:
# ------------------------------------------------------------------------------
# Name                         Type                                  Size  Value
# ------------------------------------------------------------------------------
# uvm_test_top                 full_100M_rx_pause_test               -     @347 
#   env                        eth_environment                       -     @364 
#     ahb_agt                  ahb_agent                             -     @390 
#       driver                 ahb_driver                            -     @552 
#         rsp_port             uvm_analysis_port                     -     @571 
#         seq_item_port        uvm_seq_item_pull_port                -     @561 
#       monitor                ahb_monitor                           -     @718 
#         ahb_observe_port     uvm_analysis_port                     -     @731 
#       sequencer              ahb_sequencer                         -     @581 
#         rsp_export           uvm_analysis_export                   -     @590 
#         seq_item_export      uvm_seq_item_pull_imp                 -     @708 
#         arbitration_queue    array                                 0     -    
#         lock_queue           array                                 0     -    
#         num_last_reqs        integral                              32    'd1  
#         num_last_rsps        integral                              32    'd1  
#     ahb_predictor            uvm_reg_predictor #(ahb_transaction)  -     @509 
#       bus_in                 uvm_analysis_imp                      -     @518 
#       reg_ap                 uvm_analysis_port                     -     @528 
#     phy_agt                  phy_agent                             -     @399 
#       driver                 phy_driver                            -     @889 
#         rsp_port             uvm_analysis_port                     -     @908 
#         seq_item_port        uvm_seq_item_pull_port                -     @898 
#       monitor                phy_monitor                           -     @922 
#         phy_observe_port_rx  uvm_analysis_port                     -     @941 
#         phy_observe_port_tx  uvm_analysis_port                     -     @931 
#       sequencer              phy_sequencer                         -     @752 
#         rsp_export           uvm_analysis_export                   -     @761 
#         seq_item_export      uvm_seq_item_pull_imp                 -     @879 
#         arbitration_queue    array                                 0     -    
#         lock_queue           array                                 0     -    
#         num_last_reqs        integral                              32    'd1  
#         num_last_rsps        integral                              32    'd1  
#     sb                       eth_scoreboard                        -     @408 
#       ahb_export             uvm_analysis_imp_ahb                  -     @983 
#       phy_rx_export          uvm_analysis_imp_phy_rx               -     @973 
#       phy_tx_export          uvm_analysis_imp_phy_tx               -     @963 
# ------------------------------------------------------------------------------
# 
# UVM_INFO /home/venus/QuestaSim/uvm-1.2/src/base/uvm_traversal.svh(279) @ 0: reporter [UVM/COMP/NAMECHECK] This implementation of the component name checks requires DPI to be enabled
# UVM_INFO ./../testcases/eth_base_test.sv(137) @ 0: uvm_test_top [full_100M_rx_pause_test] burst_write_reg_range: start=0x0 end=0x10 beats=5 auto_fixed_burst=1
# UVM_INFO ./../vip/phy_vip/phy_driver.sv(62) @ 0: uvm_test_top.env.phy_agt.driver [run_phase] ENTERED...
# UVM_INFO ./../sequences/eth_ahb_burst_write_seq.sv(99) @ 105000: uvm_test_top.env.ahb_agt.sequencer@@burst_seq [eth_ahb_burst_write_seq] AHB burst write chunk: addr=0x0 beats=4 burst=HBURST_INCR4
# UVM_INFO ./../vip/ahb_vip/ahb_driver.sv(28) @ 105000: uvm_test_top.env.ahb_agt.driver [run_phase] Start WRITE transaction - ADRRESS: 0x0
# UVM_INFO ./../vip/ahb_vip/ahb_monitor.sv(135) @ 125000: uvm_test_top.env.ahb_agt.monitor [ahb_monitor] Send trans from monitor to scoreboard: 
# ---------------------------------------------------
# Name           Type             Size  Value        
# ---------------------------------------------------
# trans          ahb_transaction  -     @1079        
#   xact_type    xact_type_enum   1     WRITE        
#   xfer_size    hsize_e          3     HSIZE_WORD   
#   burst_type   hburst_e         3     HBURST_INCR4 
#   addr         integral         10    'h0          
#   data         integral         32    'h33445566   
#   write        integral         1     1            
#   wdata        integral         32    'h33445566   
#   rdata        integral         32    'h0          
#   size         hsize_e          3     HSIZE_WORD   
#   burst        hburst_e         3     HBURST_INCR4 
#   prot         integral         4     'h0          
#   lock         integral         1     'h0          
#   resp         hresp_e          1     HRESP_OKAY   
#   num_beats    integral         32    'd4          
#   idle_cycles  integral         32    'd0          
#   addr_q       da(integral)     0     -            
#   wdata_q      da(integral)     1     -            
#     [0]        integral         32    'h33445566   
#   rdata_q      da(integral)     0     -            
#   resp_q       array(hresp_e)   1     -            
#     [0]        hresp_e          1     HRESP_OKAY   
#   htrans       htrans_e         2     HTRANS_NONSEQ
#   trans        htrans_e         2     HTRANS_NONSEQ
#   beat_addr    da(integral)     1     -            
#     [0]        integral         10    'h0          
#   beat_wdata   da(integral)     1     -            
#     [0]        integral         32    'h33445566   
#   beat_rdata   da(integral)     0     -            
#   beat_resp    array(hresp_e)   1     -            
#     [0]        hresp_e          1     HRESP_OKAY   
#   beat_index   integral         32    'd0          
# ---------------------------------------------------
# 
# UVM_INFO ./../regmodel/eth_reg2ahb_adapter.sv(46) @ 125000: reporter [eth_reg2ahb_adapter] bus2reg: address = 0x0, data = 0x33445566, kind = UVM_WRITE, status = UVM_IS_OK
# UVM_INFO /home/venus/QuestaSim/uvm-1.2/src/reg/uvm_reg_predictor.svh(218) @ 125000: uvm_test_top.env.ahb_predictor [REG_PREDICT] Observed WRITE transaction to register regmodel.MAC_SA_LOW: value='h33445566 : updated value = 'h33445566
# UVM_INFO ./../vip/ahb_vip/ahb_monitor.sv(135) @ 135000: uvm_test_top.env.ahb_agt.monitor [ahb_monitor] Send trans from monitor to scoreboard: 
# --------------------------------------------------
# Name           Type             Size  Value       
# --------------------------------------------------
# trans          ahb_transaction  -     @1093       
#   xact_type    xact_type_enum   1     WRITE       
#   xfer_size    hsize_e          3     HSIZE_WORD  
#   burst_type   hburst_e         3     HBURST_INCR4
#   addr         integral         10    'h4         
#   data         integral         32    'h1122      
#   write        integral         1     1           
#   wdata        integral         32    'h1122      
#   rdata        integral         32    'h0         
#   size         hsize_e          3     HSIZE_WORD  
#   burst        hburst_e         3     HBURST_INCR4
#   prot         integral         4     'h0         
#   lock         integral         1     'h0         
#   resp         hresp_e          1     HRESP_OKAY  
#   num_beats    integral         32    'd4         
#   idle_cycles  integral         32    'd0         
#   addr_q       da(integral)     0     -           
#   wdata_q      da(integral)     1     -           
#     [0]        integral         32    'h1122      
#   rdata_q      da(integral)     0     -           
#   resp_q       array(hresp_e)   1     -           
#     [0]        hresp_e          1     HRESP_OKAY  
#   htrans       htrans_e         2     HTRANS_SEQ  
#   trans        htrans_e         2     HTRANS_SEQ  
#   beat_addr    da(integral)     1     -           
#     [0]        integral         10    'h4         
#   beat_wdata   da(integral)     1     -           
#     [0]        integral         32    'h1122      
#   beat_rdata   da(integral)     0     -           
#   beat_resp    array(hresp_e)   1     -           
#     [0]        hresp_e          1     HRESP_OKAY  
#   beat_index   integral         32    'd1         
# --------------------------------------------------
# 
# UVM_INFO ./../regmodel/eth_reg2ahb_adapter.sv(46) @ 135000: reporter [eth_reg2ahb_adapter] bus2reg: address = 0x4, data = 0x1122, kind = UVM_WRITE, status = UVM_IS_OK
# UVM_INFO /home/venus/QuestaSim/uvm-1.2/src/reg/uvm_reg_predictor.svh(218) @ 135000: uvm_test_top.env.ahb_predictor [REG_PREDICT] Observed WRITE transaction to register regmodel.MAC_SA_HIGH: value='h1122 : updated value = 'h1122
# UVM_INFO ./../vip/ahb_vip/ahb_monitor.sv(135) @ 145000: uvm_test_top.env.ahb_agt.monitor [ahb_monitor] Send trans from monitor to scoreboard: 
# --------------------------------------------------
# Name           Type             Size  Value       
# --------------------------------------------------
# trans          ahb_transaction  -     @1107       
#   xact_type    xact_type_enum   1     WRITE       
#   xfer_size    hsize_e          3     HSIZE_WORD  
#   burst_type   hburst_e         3     HBURST_INCR4
#   addr         integral         10    'h8         
#   data         integral         32    'h3         
#   write        integral         1     1           
#   wdata        integral         32    'h3         
#   rdata        integral         32    'h0         
#   size         hsize_e          3     HSIZE_WORD  
#   burst        hburst_e         3     HBURST_INCR4
#   prot         integral         4     'h0         
#   lock         integral         1     'h0         
#   resp         hresp_e          1     HRESP_OKAY  
#   num_beats    integral         32    'd4         
#   idle_cycles  integral         32    'd0         
#   addr_q       da(integral)     0     -           
#   wdata_q      da(integral)     1     -           
#     [0]        integral         32    'h3         
#   rdata_q      da(integral)     0     -           
#   resp_q       array(hresp_e)   1     -           
#     [0]        hresp_e          1     HRESP_OKAY  
#   htrans       htrans_e         2     HTRANS_SEQ  
#   trans        htrans_e         2     HTRANS_SEQ  
#   beat_addr    da(integral)     1     -           
#     [0]        integral         10    'h8         
#   beat_wdata   da(integral)     1     -           
#     [0]        integral         32    'h3         
#   beat_rdata   da(integral)     0     -           
#   beat_resp    array(hresp_e)   1     -           
#     [0]        hresp_e          1     HRESP_OKAY  
#   beat_index   integral         32    'd2         
# --------------------------------------------------
# 
# UVM_INFO ./../regmodel/eth_reg2ahb_adapter.sv(46) @ 145000: reporter [eth_reg2ahb_adapter] bus2reg: address = 0x8, data = 0x3, kind = UVM_WRITE, status = UVM_IS_OK
# UVM_INFO /home/venus/QuestaSim/uvm-1.2/src/reg/uvm_reg_predictor.svh(218) @ 145000: uvm_test_top.env.ahb_predictor [REG_PREDICT] Observed WRITE transaction to register regmodel.PAUSE_CTRL: value='h3 : updated value = 'h3
# UVM_INFO ./../vip/ahb_vip/ahb_driver.sv(47) @ 155000: uvm_test_top.env.ahb_agt.driver [run_phase] Completed WRITE transaction at addr 0x0 and data: 0x33445566
# UVM_INFO ./../vip/ahb_vip/ahb_monitor.sv(135) @ 155000: uvm_test_top.env.ahb_agt.monitor [ahb_monitor] Send trans from monitor to scoreboard: 
# --------------------------------------------------
# Name           Type             Size  Value       
# --------------------------------------------------
# trans          ahb_transaction  -     @1127       
#   xact_type    xact_type_enum   1     WRITE       
#   xfer_size    hsize_e          3     HSIZE_WORD  
#   burst_type   hburst_e         3     HBURST_INCR4
#   addr         integral         10    'hc         
#   data         integral         32    'h20        
#   write        integral         1     1           
#   wdata        integral         32    'h20        
#   rdata        integral         32    'h0         
#   size         hsize_e          3     HSIZE_WORD  
#   burst        hburst_e         3     HBURST_INCR4
#   prot         integral         4     'h0         
#   lock         integral         1     'h0         
#   resp         hresp_e          1     HRESP_OKAY  
#   num_beats    integral         32    'd4         
#   idle_cycles  integral         32    'd0         
#   addr_q       da(integral)     0     -           
#   wdata_q      da(integral)     1     -           
#     [0]        integral         32    'h20        
#   rdata_q      da(integral)     0     -           
#   resp_q       array(hresp_e)   1     -           
#     [0]        hresp_e          1     HRESP_OKAY  
#   htrans       htrans_e         2     HTRANS_SEQ  
#   trans        htrans_e         2     HTRANS_SEQ  
#   beat_addr    da(integral)     1     -           
#     [0]        integral         10    'hc         
#   beat_wdata   da(integral)     1     -           
#     [0]        integral         32    'h20        
#   beat_rdata   da(integral)     0     -           
#   beat_resp    array(hresp_e)   1     -           
#     [0]        hresp_e          1     HRESP_OKAY  
#   beat_index   integral         32    'd3         
# --------------------------------------------------
# 
# UVM_INFO ./../regmodel/eth_reg2ahb_adapter.sv(46) @ 155000: reporter [eth_reg2ahb_adapter] bus2reg: address = 0xc, data = 0x20, kind = UVM_WRITE, status = UVM_IS_OK
# UVM_INFO /home/venus/QuestaSim/uvm-1.2/src/reg/uvm_reg_predictor.svh(218) @ 155000: uvm_test_top.env.ahb_predictor [REG_PREDICT] Observed WRITE transaction to register regmodel.IER: value='h20 : updated value = 'h20
# UVM_INFO ./../sequences/eth_ahb_burst_write_seq.sv(99) @ 155000: uvm_test_top.env.ahb_agt.sequencer@@burst_seq [eth_ahb_burst_write_seq] AHB burst write chunk: addr=0x10 beats=1 burst=HBURST_SINGLE
# UVM_INFO ./../vip/ahb_vip/ahb_driver.sv(28) @ 155000: uvm_test_top.env.ahb_agt.driver [run_phase] Start WRITE transaction - ADRRESS: 0x10
# UVM_INFO ./../vip/ahb_vip/ahb_monitor.sv(135) @ 175000: uvm_test_top.env.ahb_agt.monitor [ahb_monitor] Send trans from monitor to scoreboard: 
# ---------------------------------------------------
# Name           Type             Size  Value        
# ---------------------------------------------------
# trans          ahb_transaction  -     @1150        
#   xact_type    xact_type_enum   1     WRITE        
#   xfer_size    hsize_e          3     HSIZE_WORD   
#   burst_type   hburst_e         3     HBURST_SINGLE
#   addr         integral         10    'h10         
#   data         integral         32    'h23         
#   write        integral         1     1            
#   wdata        integral         32    'h23         
#   rdata        integral         32    'h0          
#   size         hsize_e          3     HSIZE_WORD   
#   burst        hburst_e         3     HBURST_SINGLE
#   prot         integral         4     'h0          
#   lock         integral         1     'h0          
#   resp         hresp_e          1     HRESP_OKAY   
#   num_beats    integral         32    'd1          
#   idle_cycles  integral         32    'd0          
#   addr_q       da(integral)     0     -            
#   wdata_q      da(integral)     1     -            
#     [0]        integral         32    'h23         
#   rdata_q      da(integral)     0     -            
#   resp_q       array(hresp_e)   1     -            
#     [0]        hresp_e          1     HRESP_OKAY   
#   htrans       htrans_e         2     HTRANS_NONSEQ
#   trans        htrans_e         2     HTRANS_NONSEQ
#   beat_addr    da(integral)     1     -            
#     [0]        integral         10    'h10         
#   beat_wdata   da(integral)     1     -            
#     [0]        integral         32    'h23         
#   beat_rdata   da(integral)     0     -            
#   beat_resp    array(hresp_e)   1     -            
#     [0]        hresp_e          1     HRESP_OKAY   
#   beat_index   integral         32    'd0          
# ---------------------------------------------------
# 
# UVM_INFO ./../regmodel/eth_reg2ahb_adapter.sv(46) @ 175000: reporter [eth_reg2ahb_adapter] bus2reg: address = 0x10, data = 0x23, kind = UVM_WRITE, status = UVM_IS_OK
# UVM_INFO /home/venus/QuestaSim/uvm-1.2/src/reg/uvm_reg_predictor.svh(218) @ 175000: uvm_test_top.env.ahb_predictor [REG_PREDICT] Observed WRITE transaction to register regmodel.MAC_CTRL: value='h23 : updated value = 'h23
# UVM_INFO ./../vip/ahb_vip/ahb_driver.sv(47) @ 175000: uvm_test_top.env.ahb_agt.driver [run_phase] Completed WRITE transaction at addr 0x10 and data: 0x23
# UVM_INFO ./../testcases/eth_base_test.sv(149) @ 175000: uvm_test_top [full_100M_rx_pause_test] burst_write_reg_range: completed
# UVM_INFO ./../testcases/eth_base_test.sv(137) @ 175000: uvm_test_top [full_100M_rx_pause_test] burst_write_reg_range: start=0x20 end=0x24 beats=2 auto_fixed_burst=1
# UVM_INFO ./../sequences/eth_ahb_burst_write_seq.sv(99) @ 175000: uvm_test_top.env.ahb_agt.sequencer@@burst_seq [eth_ahb_burst_write_seq] AHB burst write chunk: addr=0x20 beats=2 burst=HBURST_INCR
# UVM_INFO ./../vip/ahb_vip/ahb_driver.sv(28) @ 175000: uvm_test_top.env.ahb_agt.driver [run_phase] Start WRITE transaction - ADRRESS: 0x20
# UVM_INFO ./../vip/ahb_vip/ahb_monitor.sv(135) @ 195000: uvm_test_top.env.ahb_agt.monitor [ahb_monitor] Send trans from monitor to scoreboard: 
# ---------------------------------------------------
# Name           Type             Size  Value        
# ---------------------------------------------------
# trans          ahb_transaction  -     @1190        
#   xact_type    xact_type_enum   1     WRITE        
#   xfer_size    hsize_e          3     HSIZE_WORD   
#   burst_type   hburst_e         3     HBURST_INCR  
#   addr         integral         10    'h20         
#   data         integral         32    'h0          
#   write        integral         1     1            
#   wdata        integral         32    'h0          
#   rdata        integral         32    'h0          
#   size         hsize_e          3     HSIZE_WORD   
#   burst        hburst_e         3     HBURST_INCR  
#   prot         integral         4     'h0          
#   lock         integral         1     'h0          
#   resp         hresp_e          1     HRESP_OKAY   
#   num_beats    integral         32    'd0          
#   idle_cycles  integral         32    'd0          
#   addr_q       da(integral)     0     -            
#   wdata_q      da(integral)     1     -            
#     [0]        integral         32    'h0          
#   rdata_q      da(integral)     0     -            
#   resp_q       array(hresp_e)   1     -            
#     [0]        hresp_e          1     HRESP_OKAY   
#   htrans       htrans_e         2     HTRANS_NONSEQ
#   trans        htrans_e         2     HTRANS_NONSEQ
#   beat_addr    da(integral)     1     -            
#     [0]        integral         10    'h20         
#   beat_wdata   da(integral)     1     -            
#     [0]        integral         32    'h0          
#   beat_rdata   da(integral)     0     -            
#   beat_resp    array(hresp_e)   1     -            
#     [0]        hresp_e          1     HRESP_OKAY   
#   beat_index   integral         32    'd0          
# ---------------------------------------------------
# 
# UVM_INFO ./../regmodel/eth_reg2ahb_adapter.sv(46) @ 195000: reporter [eth_reg2ahb_adapter] bus2reg: address = 0x20, data = 0x0, kind = UVM_WRITE, status = UVM_IS_OK
# UVM_INFO /home/venus/QuestaSim/uvm-1.2/src/reg/uvm_reg_predictor.svh(218) @ 195000: uvm_test_top.env.ahb_predictor [REG_PREDICT] Observed WRITE transaction to register regmodel.HASH_0: value='h0 : updated value = 'h0
# UVM_INFO ./../vip/ahb_vip/ahb_driver.sv(47) @ 205000: uvm_test_top.env.ahb_agt.driver [run_phase] Completed WRITE transaction at addr 0x20 and data: 0x0
# UVM_INFO ./../vip/ahb_vip/ahb_monitor.sv(135) @ 205000: uvm_test_top.env.ahb_agt.monitor [ahb_monitor] Send trans from monitor to scoreboard: 
# -------------------------------------------------
# Name           Type             Size  Value      
# -------------------------------------------------
# trans          ahb_transaction  -     @1210      
#   xact_type    xact_type_enum   1     WRITE      
#   xfer_size    hsize_e          3     HSIZE_WORD 
#   burst_type   hburst_e         3     HBURST_INCR
#   addr         integral         10    'h24       
#   data         integral         32    'h0        
#   write        integral         1     1          
#   wdata        integral         32    'h0        
#   rdata        integral         32    'h0        
#   size         hsize_e          3     HSIZE_WORD 
#   burst        hburst_e         3     HBURST_INCR
#   prot         integral         4     'h0        
#   lock         integral         1     'h0        
#   resp         hresp_e          1     HRESP_OKAY 
#   num_beats    integral         32    'd0        
#   idle_cycles  integral         32    'd0        
#   addr_q       da(integral)     0     -          
#   wdata_q      da(integral)     1     -          
#     [0]        integral         32    'h0        
#   rdata_q      da(integral)     0     -          
#   resp_q       array(hresp_e)   1     -          
#     [0]        hresp_e          1     HRESP_OKAY 
#   htrans       htrans_e         2     HTRANS_SEQ 
#   trans        htrans_e         2     HTRANS_SEQ 
#   beat_addr    da(integral)     1     -          
#     [0]        integral         10    'h24       
#   beat_wdata   da(integral)     1     -          
#     [0]        integral         32    'h0        
#   beat_rdata   da(integral)     0     -          
#   beat_resp    array(hresp_e)   1     -          
#     [0]        hresp_e          1     HRESP_OKAY 
#   beat_index   integral         32    'd1        
# -------------------------------------------------
# 
# UVM_INFO ./../regmodel/eth_reg2ahb_adapter.sv(46) @ 205000: reporter [eth_reg2ahb_adapter] bus2reg: address = 0x24, data = 0x0, kind = UVM_WRITE, status = UVM_IS_OK
# UVM_INFO /home/venus/QuestaSim/uvm-1.2/src/reg/uvm_reg_predictor.svh(218) @ 205000: uvm_test_top.env.ahb_predictor [REG_PREDICT] Observed WRITE transaction to register regmodel.HASH_1: value='h0 : updated value = 'h0
# UVM_INFO ./../testcases/eth_base_test.sv(149) @ 205000: uvm_test_top [full_100M_rx_pause_test] burst_write_reg_range: completed
# UVM_INFO ./../testcases/eth_base_test.sv(137) @ 205000: uvm_test_top [full_100M_rx_pause_test] burst_write_reg_range: start=0x40 end=0x44 beats=2 auto_fixed_burst=1
# UVM_INFO ./../sequences/eth_ahb_burst_write_seq.sv(99) @ 205000: uvm_test_top.env.ahb_agt.sequencer@@burst_seq [eth_ahb_burst_write_seq] AHB burst write chunk: addr=0x40 beats=2 burst=HBURST_INCR
# UVM_INFO ./../vip/ahb_vip/ahb_driver.sv(28) @ 205000: uvm_test_top.env.ahb_agt.driver [run_phase] Start WRITE transaction - ADRRESS: 0x40
# UVM_INFO ./../vip/ahb_vip/ahb_monitor.sv(135) @ 225000: uvm_test_top.env.ahb_agt.monitor [ahb_monitor] Send trans from monitor to scoreboard: 
# ---------------------------------------------------
# Name           Type             Size  Value        
# ---------------------------------------------------
# trans          ahb_transaction  -     @1244        
#   xact_type    xact_type_enum   1     WRITE        
#   xfer_size    hsize_e          3     HSIZE_WORD   
#   burst_type   hburst_e         3     HBURST_INCR  
#   addr         integral         10    'h40         
#   data         integral         32    'hccddeeff   
#   write        integral         1     1            
#   wdata        integral         32    'hccddeeff   
#   rdata        integral         32    'h0          
#   size         hsize_e          3     HSIZE_WORD   
#   burst        hburst_e         3     HBURST_INCR  
#   prot         integral         4     'h0          
#   lock         integral         1     'h0          
#   resp         hresp_e          1     HRESP_OKAY   
#   num_beats    integral         32    'd0          
#   idle_cycles  integral         32    'd0          
#   addr_q       da(integral)     0     -            
#   wdata_q      da(integral)     1     -            
#     [0]        integral         32    'hccddeeff   
#   rdata_q      da(integral)     0     -            
#   resp_q       array(hresp_e)   1     -            
#     [0]        hresp_e          1     HRESP_OKAY   
#   htrans       htrans_e         2     HTRANS_NONSEQ
#   trans        htrans_e         2     HTRANS_NONSEQ
#   beat_addr    da(integral)     1     -            
#     [0]        integral         10    'h40         
#   beat_wdata   da(integral)     1     -            
#     [0]        integral         32    'hccddeeff   
#   beat_rdata   da(integral)     0     -            
#   beat_resp    array(hresp_e)   1     -            
#     [0]        hresp_e          1     HRESP_OKAY   
#   beat_index   integral         32    'd0          
# ---------------------------------------------------
# 
# UVM_INFO ./../regmodel/eth_reg2ahb_adapter.sv(46) @ 225000: reporter [eth_reg2ahb_adapter] bus2reg: address = 0x40, data = 0xccddeeff, kind = UVM_WRITE, status = UVM_IS_OK
# UVM_INFO /home/venus/QuestaSim/uvm-1.2/src/reg/uvm_reg_predictor.svh(218) @ 225000: uvm_test_top.env.ahb_predictor [REG_PREDICT] Observed WRITE transaction to register regmodel.TX_DA_LOW: value='hccddeeff : updated value = 'hccddeeff
# UVM_INFO ./../vip/ahb_vip/ahb_driver.sv(47) @ 235000: uvm_test_top.env.ahb_agt.driver [run_phase] Completed WRITE transaction at addr 0x40 and data: 0xccddeeff
# UVM_INFO ./../vip/ahb_vip/ahb_monitor.sv(135) @ 235000: uvm_test_top.env.ahb_agt.monitor [ahb_monitor] Send trans from monitor to scoreboard: 
# -------------------------------------------------
# Name           Type             Size  Value      
# -------------------------------------------------
# trans          ahb_transaction  -     @1264      
#   xact_type    xact_type_enum   1     WRITE      
#   xfer_size    hsize_e          3     HSIZE_WORD 
#   burst_type   hburst_e         3     HBURST_INCR
#   addr         integral         10    'h44       
#   data         integral         32    'haabb     
#   write        integral         1     1          
#   wdata        integral         32    'haabb     
#   rdata        integral         32    'h0        
#   size         hsize_e          3     HSIZE_WORD 
#   burst        hburst_e         3     HBURST_INCR
#   prot         integral         4     'h0        
#   lock         integral         1     'h0        
#   resp         hresp_e          1     HRESP_OKAY 
#   num_beats    integral         32    'd0        
#   idle_cycles  integral         32    'd0        
#   addr_q       da(integral)     0     -          
#   wdata_q      da(integral)     1     -          
#     [0]        integral         32    'haabb     
#   rdata_q      da(integral)     0     -          
#   resp_q       array(hresp_e)   1     -          
#     [0]        hresp_e          1     HRESP_OKAY 
#   htrans       htrans_e         2     HTRANS_SEQ 
#   trans        htrans_e         2     HTRANS_SEQ 
#   beat_addr    da(integral)     1     -          
#     [0]        integral         10    'h44       
#   beat_wdata   da(integral)     1     -          
#     [0]        integral         32    'haabb     
#   beat_rdata   da(integral)     0     -          
#   beat_resp    array(hresp_e)   1     -          
#     [0]        hresp_e          1     HRESP_OKAY 
#   beat_index   integral         32    'd1        
# -------------------------------------------------
# 
# UVM_INFO ./../regmodel/eth_reg2ahb_adapter.sv(46) @ 235000: reporter [eth_reg2ahb_adapter] bus2reg: address = 0x44, data = 0xaabb, kind = UVM_WRITE, status = UVM_IS_OK
# UVM_INFO /home/venus/QuestaSim/uvm-1.2/src/reg/uvm_reg_predictor.svh(218) @ 235000: uvm_test_top.env.ahb_predictor [REG_PREDICT] Observed WRITE transaction to register regmodel.TX_DA_HIGH: value='haabb : updated value = 'haabb
# UVM_INFO ./../testcases/eth_base_test.sv(149) @ 235000: uvm_test_top [full_100M_rx_pause_test] burst_write_reg_range: completed
# UVM_INFO ./../regmodel/eth_reg2ahb_adapter.sv(31) @ 235000: reporter [eth_reg2ahb_adapter] reg2bus: address = 0x48, data = 0x90, kind = WRITE
# UVM_INFO ./../vip/ahb_vip/ahb_driver.sv(28) @ 235000: uvm_test_top.env.ahb_agt.driver [run_phase] Start WRITE transaction - ADRRESS: 0x48
# UVM_INFO ./../vip/ahb_vip/ahb_monitor.sv(135) @ 255000: uvm_test_top.env.ahb_agt.monitor [ahb_monitor] Send trans from monitor to scoreboard: 
# ---------------------------------------------------
# Name           Type             Size  Value        
# ---------------------------------------------------
# trans          ahb_transaction  -     @1300        
#   xact_type    xact_type_enum   1     WRITE        
#   xfer_size    hsize_e          3     HSIZE_WORD   
#   burst_type   hburst_e         3     HBURST_SINGLE
#   addr         integral         10    'h48         
#   data         integral         32    'h90         
#   write        integral         1     1            
#   wdata        integral         32    'h90         
#   rdata        integral         32    'h0          
#   size         hsize_e          3     HSIZE_WORD   
#   burst        hburst_e         3     HBURST_SINGLE
#   prot         integral         4     'h0          
#   lock         integral         1     'h0          
#   resp         hresp_e          1     HRESP_OKAY   
#   num_beats    integral         32    'd1          
#   idle_cycles  integral         32    'd0          
#   addr_q       da(integral)     0     -            
#   wdata_q      da(integral)     1     -            
#     [0]        integral         32    'h90         
#   rdata_q      da(integral)     0     -            
#   resp_q       array(hresp_e)   1     -            
#     [0]        hresp_e          1     HRESP_OKAY   
#   htrans       htrans_e         2     HTRANS_NONSEQ
#   trans        htrans_e         2     HTRANS_NONSEQ
#   beat_addr    da(integral)     1     -            
#     [0]        integral         10    'h48         
#   beat_wdata   da(integral)     1     -            
#     [0]        integral         32    'h90         
#   beat_rdata   da(integral)     0     -            
#   beat_resp    array(hresp_e)   1     -            
#     [0]        hresp_e          1     HRESP_OKAY   
#   beat_index   integral         32    'd0          
# ---------------------------------------------------
# 
# UVM_INFO ./../regmodel/eth_reg2ahb_adapter.sv(46) @ 255000: reporter [eth_reg2ahb_adapter] bus2reg: address = 0x48, data = 0x90, kind = UVM_WRITE, status = UVM_IS_OK
# UVM_INFO /home/venus/QuestaSim/uvm-1.2/src/reg/uvm_reg_predictor.svh(218) @ 255000: uvm_test_top.env.ahb_predictor [REG_PREDICT] Observed WRITE transaction to register regmodel.TX_LEN: value='h90 : updated value = 'h90
# UVM_INFO ./../vip/ahb_vip/ahb_driver.sv(47) @ 255000: uvm_test_top.env.ahb_agt.driver [run_phase] Completed WRITE transaction at addr 0x48 and data: 0x90
# UVM_INFO ./../regmodel/eth_reg2ahb_adapter.sv(46) @ 255000: reporter [eth_reg2ahb_adapter] bus2reg: address = 0x48, data = 0x90, kind = UVM_WRITE, status = UVM_IS_OK
# UVM_INFO @ 255000: reporter [RegModel] Wrote register via map regmodel.ahb_map: regmodel.TX_LEN=0x90
# UVM_INFO ./../testcases/eth_base_test.sv(182) @ 255000: uvm_test_top [full_100M_rx_pause_test] random_payload: byte_len=144 num_words=36
#   payload[0] = 32'hba020d79
#   payload[1] = 32'h42fa059b
#   payload[2] = 32'h37358356
#   payload[3] = 32'h10c29bbb
#   payload[4] = 32'hf33b0131
#   payload[5] = 32'h08faf725
#   payload[6] = 32'h8db4082e
#   payload[7] = 32'he8be3e48
#   payload[8] = 32'h0e506f7a
#   payload[9] = 32'h041309a5
#   payload[10] = 32'hc9d42424
#   payload[11] = 32'h83200a5a
#   payload[12] = 32'h7cc7ce48
#   payload[13] = 32'hb02e9955
#   payload[14] = 32'h07fdeafa
#   payload[15] = 32'h663ad4d5
#   payload[16] = 32'h2ab377e4
#   payload[17] = 32'ha4dde327
#   payload[18] = 32'h46b7d954
#   payload[19] = 32'h1cc12737
#   payload[20] = 32'hbab4d13b
#   payload[21] = 32'h9b006896
#   payload[22] = 32'h1351399e
#   payload[23] = 32'hf94004f7
#   payload[24] = 32'h313d8b49
#   payload[25] = 32'h950ae250
#   payload[26] = 32'h930187e0
#   payload[27] = 32'hd1d65e0d
#   payload[28] = 32'h34e5cb16
#   payload[29] = 32'hcfc5a4c3
#   payload[30] = 32'hc49e8b70
#   payload[31] = 32'h323b9b76
#   payload[32] = 32'hf38ff50e
#   payload[33] = 32'h1a0670e7
#   payload[34] = 32'h40a36ddf
#   payload[35] = 32'h928de1ec
# UVM_INFO ./../regmodel/eth_reg2ahb_adapter.sv(31) @ 255000: reporter [eth_reg2ahb_adapter] reg2bus: address = 0x4c, data = 0xba020d79, kind = WRITE
# UVM_INFO ./../vip/ahb_vip/ahb_driver.sv(28) @ 255000: uvm_test_top.env.ahb_agt.driver [run_phase] Start WRITE transaction - ADRRESS: 0x4c
# UVM_INFO ./../vip/ahb_vip/ahb_monitor.sv(135) @ 275000: uvm_test_top.env.ahb_agt.monitor [ahb_monitor] Send trans from monitor to scoreboard: 
# ---------------------------------------------------
# Name           Type             Size  Value        
# ---------------------------------------------------
# trans          ahb_transaction  -     @1344        
#   xact_type    xact_type_enum   1     WRITE        
#   xfer_size    hsize_e          3     HSIZE_WORD   
#   burst_type   hburst_e         3     HBURST_SINGLE
#   addr         integral         10    'h4c         
#   data         integral         32    'hba020d79   
#   write        integral         1     1            
#   wdata        integral         32    'hba020d79   
#   rdata        integral         32    'h0          
#   size         hsize_e          3     HSIZE_WORD   
#   burst        hburst_e         3     HBURST_SINGLE
#   prot         integral         4     'h0          
#   lock         integral         1     'h0          
#   resp         hresp_e          1     HRESP_OKAY   
#   num_beats    integral         32    'd1          
#   idle_cycles  integral         32    'd0          
#   addr_q       da(integral)     0     -            
#   wdata_q      da(integral)     1     -            
#     [0]        integral         32    'hba020d79   
#   rdata_q      da(integral)     0     -            
#   resp_q       array(hresp_e)   1     -            
#     [0]        hresp_e          1     HRESP_OKAY   
#   htrans       htrans_e         2     HTRANS_NONSEQ
#   trans        htrans_e         2     HTRANS_NONSEQ
#   beat_addr    da(integral)     1     -            
#     [0]        integral         10    'h4c         
#   beat_wdata   da(integral)     1     -            
#     [0]        integral         32    'hba020d79   
#   beat_rdata   da(integral)     0     -            
#   beat_resp    array(hresp_e)   1     -            
#     [0]        hresp_e          1     HRESP_OKAY   
#   beat_index   integral         32    'd0          
# ---------------------------------------------------
# 
# UVM_INFO ./../regmodel/eth_reg2ahb_adapter.sv(46) @ 275000: reporter [eth_reg2ahb_adapter] bus2reg: address = 0x4c, data = 0xba020d79, kind = UVM_WRITE, status = UVM_IS_OK
# UVM_INFO /home/venus/QuestaSim/uvm-1.2/src/reg/uvm_reg_predictor.svh(218) @ 275000: uvm_test_top.env.ahb_predictor [REG_PREDICT] Observed WRITE transaction to register regmodel.TX_DATA: value='hba020d79 : updated value = 'hba020d79
# UVM_INFO ./../vip/ahb_vip/ahb_driver.sv(47) @ 275000: uvm_test_top.env.ahb_agt.driver [run_phase] Completed WRITE transaction at addr 0x4c and data: 0xba020d79
# UVM_INFO ./../regmodel/eth_reg2ahb_adapter.sv(46) @ 275000: reporter [eth_reg2ahb_adapter] bus2reg: address = 0x4c, data = 0xba020d79, kind = UVM_WRITE, status = UVM_IS_OK
# UVM_INFO @ 275000: reporter [RegModel] Wrote register via map regmodel.ahb_map: regmodel.TX_DATA=0xba020d79
# UVM_INFO ./../regmodel/eth_reg2ahb_adapter.sv(31) @ 275000: reporter [eth_reg2ahb_adapter] reg2bus: address = 0x4c, data = 0x42fa059b, kind = WRITE
# UVM_INFO ./../vip/ahb_vip/ahb_driver.sv(28) @ 275000: uvm_test_top.env.ahb_agt.driver [run_phase] Start WRITE transaction - ADRRESS: 0x4c
# UVM_INFO ./../vip/ahb_vip/ahb_monitor.sv(135) @ 295000: uvm_test_top.env.ahb_agt.monitor [ahb_monitor] Send trans from monitor to scoreboard: 
# ---------------------------------------------------
# Name           Type             Size  Value        
# ---------------------------------------------------
# trans          ahb_transaction  -     @1386        
#   xact_type    xact_type_enum   1     WRITE        
#   xfer_size    hsize_e          3     HSIZE_WORD   
#   burst_type   hburst_e         3     HBURST_SINGLE
#   addr         integral         10    'h4c         
#   data         integral         32    'h42fa059b   
#   write        integral         1     1            
#   wdata        integral         32    'h42fa059b   
#   rdata        integral         32    'h0          
#   size         hsize_e          3     HSIZE_WORD   
#   burst        hburst_e         3     HBURST_SINGLE
#   prot         integral         4     'h0          
#   lock         integral         1     'h0          
#   resp         hresp_e          1     HRESP_OKAY   
#   num_beats    integral         32    'd1          
#   idle_cycles  integral         32    'd0          
#   addr_q       da(integral)     0     -            
#   wdata_q      da(integral)     1     -            
#     [0]        integral         32    'h42fa059b   
#   rdata_q      da(integral)     0     -            
#   resp_q       array(hresp_e)   1     -            
#     [0]        hresp_e          1     HRESP_OKAY   
#   htrans       htrans_e         2     HTRANS_NONSEQ
#   trans        htrans_e         2     HTRANS_NONSEQ
#   beat_addr    da(integral)     1     -            
#     [0]        integral         10    'h4c         
#   beat_wdata   da(integral)     1     -            
#     [0]        integral         32    'h42fa059b   
#   beat_rdata   da(integral)     0     -            
#   beat_resp    array(hresp_e)   1     -            
#     [0]        hresp_e          1     HRESP_OKAY   
#   beat_index   integral         32    'd0          
# ---------------------------------------------------
# 
# UVM_INFO ./../regmodel/eth_reg2ahb_adapter.sv(46) @ 295000: reporter [eth_reg2ahb_adapter] bus2reg: address = 0x4c, data = 0x42fa059b, kind = UVM_WRITE, status = UVM_IS_OK
# UVM_INFO /home/venus/QuestaSim/uvm-1.2/src/reg/uvm_reg_predictor.svh(218) @ 295000: uvm_test_top.env.ahb_predictor [REG_PREDICT] Observed WRITE transaction to register regmodel.TX_DATA: value='h42fa059b : updated value = 'h42fa059b
# UVM_INFO ./../vip/ahb_vip/ahb_driver.sv(47) @ 295000: uvm_test_top.env.ahb_agt.driver [run_phase] Completed WRITE transaction at addr 0x4c and data: 0x42fa059b
# UVM_INFO ./../regmodel/eth_reg2ahb_adapter.sv(46) @ 295000: reporter [eth_reg2ahb_adapter] bus2reg: address = 0x4c, data = 0x42fa059b, kind = UVM_WRITE, status = UVM_IS_OK
# UVM_INFO @ 295000: reporter [RegModel] Wrote register via map regmodel.ahb_map: regmodel.TX_DATA=0x42fa059b
# UVM_INFO ./../regmodel/eth_reg2ahb_adapter.sv(31) @ 295000: reporter [eth_reg2ahb_adapter] reg2bus: address = 0x4c, data = 0x37358356, kind = WRITE
# UVM_INFO ./../vip/ahb_vip/ahb_driver.sv(28) @ 295000: uvm_test_top.env.ahb_agt.driver [run_phase] Start WRITE transaction - ADRRESS: 0x4c
# UVM_INFO ./../vip/ahb_vip/ahb_monitor.sv(135) @ 315000: uvm_test_top.env.ahb_agt.monitor [ahb_monitor] Send trans from monitor to scoreboard: 
# ---------------------------------------------------
# Name           Type             Size  Value        
# ---------------------------------------------------
# trans          ahb_transaction  -     @1428        
#   xact_type    xact_type_enum   1     WRITE        
#   xfer_size    hsize_e          3     HSIZE_WORD   
#   burst_type   hburst_e         3     HBURST_SINGLE
#   addr         integral         10    'h4c         
#   data         integral         32    'h37358356   
#   write        integral         1     1            
#   wdata        integral         32    'h37358356   
#   rdata        integral         32    'h0          
#   size         hsize_e          3     HSIZE_WORD   
#   burst        hburst_e         3     HBURST_SINGLE
#   prot         integral         4     'h0          
#   lock         integral         1     'h0          
#   resp         hresp_e          1     HRESP_OKAY   
#   num_beats    integral         32    'd1          
#   idle_cycles  integral         32    'd0          
#   addr_q       da(integral)     0     -            
#   wdata_q      da(integral)     1     -            
#     [0]        integral         32    'h37358356   
#   rdata_q      da(integral)     0     -            
#   resp_q       array(hresp_e)   1     -            
#     [0]        hresp_e          1     HRESP_OKAY   
#   htrans       htrans_e         2     HTRANS_NONSEQ
#   trans        htrans_e         2     HTRANS_NONSEQ
#   beat_addr    da(integral)     1     -            
#     [0]        integral         10    'h4c         
#   beat_wdata   da(integral)     1     -            
#     [0]        integral         32    'h37358356   
#   beat_rdata   da(integral)     0     -            
#   beat_resp    array(hresp_e)   1     -            
#     [0]        hresp_e          1     HRESP_OKAY   
#   beat_index   integral         32    'd0          
# ---------------------------------------------------
# 
# UVM_INFO ./../regmodel/eth_reg2ahb_adapter.sv(46) @ 315000: reporter [eth_reg2ahb_adapter] bus2reg: address = 0x4c, data = 0x37358356, kind = UVM_WRITE, status = UVM_IS_OK
# UVM_INFO /home/venus/QuestaSim/uvm-1.2/src/reg/uvm_reg_predictor.svh(218) @ 315000: uvm_test_top.env.ahb_predictor [REG_PREDICT] Observed WRITE transaction to register regmodel.TX_DATA: value='h37358356 : updated value = 'h37358356
# UVM_INFO ./../vip/ahb_vip/ahb_driver.sv(47) @ 315000: uvm_test_top.env.ahb_agt.driver [run_phase] Completed WRITE transaction at addr 0x4c and data: 0x37358356
# UVM_INFO ./../regmodel/eth_reg2ahb_adapter.sv(46) @ 315000: reporter [eth_reg2ahb_adapter] bus2reg: address = 0x4c, data = 0x37358356, kind = UVM_WRITE, status = UVM_IS_OK
# UVM_INFO @ 315000: reporter [RegModel] Wrote register via map regmodel.ahb_map: regmodel.TX_DATA=0x37358356
# UVM_INFO ./../regmodel/eth_reg2ahb_adapter.sv(31) @ 315000: reporter [eth_reg2ahb_adapter] reg2bus: address = 0x4c, data = 0x10c29bbb, kind = WRITE
# UVM_INFO ./../vip/ahb_vip/ahb_driver.sv(28) @ 315000: uvm_test_top.env.ahb_agt.driver [run_phase] Start WRITE transaction - ADRRESS: 0x4c
# UVM_INFO ./../vip/ahb_vip/ahb_monitor.sv(135) @ 335000: uvm_test_top.env.ahb_agt.monitor [ahb_monitor] Send trans from monitor to scoreboard: 
# ---------------------------------------------------
# Name           Type             Size  Value        
# ---------------------------------------------------
# trans          ahb_transaction  -     @1470        
#   xact_type    xact_type_enum   1     WRITE        
#   xfer_size    hsize_e          3     HSIZE_WORD   
#   burst_type   hburst_e         3     HBURST_SINGLE
#   addr         integral         10    'h4c         
#   data         integral         32    'h10c29bbb   
#   write        integral         1     1            
#   wdata        integral         32    'h10c29bbb   
#   rdata        integral         32    'h0          
#   size         hsize_e          3     HSIZE_WORD   
#   burst        hburst_e         3     HBURST_SINGLE
#   prot         integral         4     'h0          
#   lock         integral         1     'h0          
#   resp         hresp_e          1     HRESP_OKAY   
#   num_beats    integral         32    'd1          
#   idle_cycles  integral         32    'd0          
#   addr_q       da(integral)     0     -            
#   wdata_q      da(integral)     1     -            
#     [0]        integral         32    'h10c29bbb   
#   rdata_q      da(integral)     0     -            
#   resp_q       array(hresp_e)   1     -            
#     [0]        hresp_e          1     HRESP_OKAY   
#   htrans       htrans_e         2     HTRANS_NONSEQ
#   trans        htrans_e         2     HTRANS_NONSEQ
#   beat_addr    da(integral)     1     -            
#     [0]        integral         10    'h4c         
#   beat_wdata   da(integral)     1     -            
#     [0]        integral         32    'h10c29bbb   
#   beat_rdata   da(integral)     0     -            
#   beat_resp    array(hresp_e)   1     -            
#     [0]        hresp_e          1     HRESP_OKAY   
#   beat_index   integral         32    'd0          
# ---------------------------------------------------
# 
# UVM_INFO ./../regmodel/eth_reg2ahb_adapter.sv(46) @ 335000: reporter [eth_reg2ahb_adapter] bus2reg: address = 0x4c, data = 0x10c29bbb, kind = UVM_WRITE, status = UVM_IS_OK
# UVM_INFO /home/venus/QuestaSim/uvm-1.2/src/reg/uvm_reg_predictor.svh(218) @ 335000: uvm_test_top.env.ahb_predictor [REG_PREDICT] Observed WRITE transaction to register regmodel.TX_DATA: value='h10c29bbb : updated value = 'h10c29bbb
# UVM_INFO ./../vip/ahb_vip/ahb_driver.sv(47) @ 335000: uvm_test_top.env.ahb_agt.driver [run_phase] Completed WRITE transaction at addr 0x4c and data: 0x10c29bbb
# UVM_INFO ./../regmodel/eth_reg2ahb_adapter.sv(46) @ 335000: reporter [eth_reg2ahb_adapter] bus2reg: address = 0x4c, data = 0x10c29bbb, kind = UVM_WRITE, status = UVM_IS_OK
# UVM_INFO @ 335000: reporter [RegModel] Wrote register via map regmodel.ahb_map: regmodel.TX_DATA=0x10c29bbb
# UVM_INFO ./../regmodel/eth_reg2ahb_adapter.sv(31) @ 335000: reporter [eth_reg2ahb_adapter] reg2bus: address = 0x4c, data = 0xf33b0131, kind = WRITE
# UVM_INFO ./../vip/ahb_vip/ahb_driver.sv(28) @ 335000: uvm_test_top.env.ahb_agt.driver [run_phase] Start WRITE transaction - ADRRESS: 0x4c
# UVM_INFO ./../vip/ahb_vip/ahb_monitor.sv(135) @ 355000: uvm_test_top.env.ahb_agt.monitor [ahb_monitor] Send trans from monitor to scoreboard: 
# ---------------------------------------------------
# Name           Type             Size  Value        
# ---------------------------------------------------
# trans          ahb_transaction  -     @1512        
#   xact_type    xact_type_enum   1     WRITE        
#   xfer_size    hsize_e          3     HSIZE_WORD   
#   burst_type   hburst_e         3     HBURST_SINGLE
#   addr         integral         10    'h4c         
#   data         integral         32    'hf33b0131   
#   write        integral         1     1            
#   wdata        integral         32    'hf33b0131   
#   rdata        integral         32    'h0          
#   size         hsize_e          3     HSIZE_WORD   
#   burst        hburst_e         3     HBURST_SINGLE
#   prot         integral         4     'h0          
#   lock         integral         1     'h0          
#   resp         hresp_e          1     HRESP_OKAY   
#   num_beats    integral         32    'd1          
#   idle_cycles  integral         32    'd0          
#   addr_q       da(integral)     0     -            
#   wdata_q      da(integral)     1     -            
#     [0]        integral         32    'hf33b0131   
#   rdata_q      da(integral)     0     -            
#   resp_q       array(hresp_e)   1     -            
#     [0]        hresp_e          1     HRESP_OKAY   
#   htrans       htrans_e         2     HTRANS_NONSEQ
#   trans        htrans_e         2     HTRANS_NONSEQ
#   beat_addr    da(integral)     1     -            
#     [0]        integral         10    'h4c         
#   beat_wdata   da(integral)     1     -            
#     [0]        integral         32    'hf33b0131   
#   beat_rdata   da(integral)     0     -            
#   beat_resp    array(hresp_e)   1     -            
#     [0]        hresp_e          1     HRESP_OKAY   
#   beat_index   integral         32    'd0          
# ---------------------------------------------------
# 
# UVM_INFO ./../regmodel/eth_reg2ahb_adapter.sv(46) @ 355000: reporter [eth_reg2ahb_adapter] bus2reg: address = 0x4c, data = 0xf33b0131, kind = UVM_WRITE, status = UVM_IS_OK
# UVM_INFO /home/venus/QuestaSim/uvm-1.2/src/reg/uvm_reg_predictor.svh(218) @ 355000: uvm_test_top.env.ahb_predictor [REG_PREDICT] Observed WRITE transaction to register regmodel.TX_DATA: value='hf33b0131 : updated value = 'hf33b0131
# UVM_INFO ./../vip/ahb_vip/ahb_driver.sv(47) @ 355000: uvm_test_top.env.ahb_agt.driver [run_phase] Completed WRITE transaction at addr 0x4c and data: 0xf33b0131
# UVM_INFO ./../regmodel/eth_reg2ahb_adapter.sv(46) @ 355000: reporter [eth_reg2ahb_adapter] bus2reg: address = 0x4c, data = 0xf33b0131, kind = UVM_WRITE, status = UVM_IS_OK
# UVM_INFO @ 355000: reporter [RegModel] Wrote register via map regmodel.ahb_map: regmodel.TX_DATA=0xf33b0131
# UVM_INFO ./../regmodel/eth_reg2ahb_adapter.sv(31) @ 355000: reporter [eth_reg2ahb_adapter] reg2bus: address = 0x4c, data = 0x8faf725, kind = WRITE
# UVM_INFO ./../vip/ahb_vip/ahb_driver.sv(28) @ 355000: uvm_test_top.env.ahb_agt.driver [run_phase] Start WRITE transaction - ADRRESS: 0x4c
# UVM_INFO ./../vip/ahb_vip/ahb_monitor.sv(135) @ 375000: uvm_test_top.env.ahb_agt.monitor [ahb_monitor] Send trans from monitor to scoreboard: 
# ---------------------------------------------------
# Name           Type             Size  Value        
# ---------------------------------------------------
# trans          ahb_transaction  -     @1554        
#   xact_type    xact_type_enum   1     WRITE        
#   xfer_size    hsize_e          3     HSIZE_WORD   
#   burst_type   hburst_e         3     HBURST_SINGLE
#   addr         integral         10    'h4c         
#   data         integral         32    'h8faf725    
#   write        integral         1     1            
#   wdata        integral         32    'h8faf725    
#   rdata        integral         32    'h0          
#   size         hsize_e          3     HSIZE_WORD   
#   burst        hburst_e         3     HBURST_SINGLE
#   prot         integral         4     'h0          
#   lock         integral         1     'h0          
#   resp         hresp_e          1     HRESP_OKAY   
#   num_beats    integral         32    'd1          
#   idle_cycles  integral         32    'd0          
#   addr_q       da(integral)     0     -            
#   wdata_q      da(integral)     1     -            
#     [0]        integral         32    'h8faf725    
#   rdata_q      da(integral)     0     -            
#   resp_q       array(hresp_e)   1     -            
#     [0]        hresp_e          1     HRESP_OKAY   
#   htrans       htrans_e         2     HTRANS_NONSEQ
#   trans        htrans_e         2     HTRANS_NONSEQ
#   beat_addr    da(integral)     1     -            
#     [0]        integral         10    'h4c         
#   beat_wdata   da(integral)     1     -            
#     [0]        integral         32    'h8faf725    
#   beat_rdata   da(integral)     0     -            
#   beat_resp    array(hresp_e)   1     -            
#     [0]        hresp_e          1     HRESP_OKAY   
#   beat_index   integral         32    'd0          
# ---------------------------------------------------
# 
# UVM_INFO ./../regmodel/eth_reg2ahb_adapter.sv(46) @ 375000: reporter [eth_reg2ahb_adapter] bus2reg: address = 0x4c, data = 0x8faf725, kind = UVM_WRITE, status = UVM_IS_OK
# UVM_INFO /home/venus/QuestaSim/uvm-1.2/src/reg/uvm_reg_predictor.svh(218) @ 375000: uvm_test_top.env.ahb_predictor [REG_PREDICT] Observed WRITE transaction to register regmodel.TX_DATA: value='h8faf725 : updated value = 'h8faf725
# UVM_INFO ./../vip/ahb_vip/ahb_driver.sv(47) @ 375000: uvm_test_top.env.ahb_agt.driver [run_phase] Completed WRITE transaction at addr 0x4c and data: 0x8faf725
# UVM_INFO ./../regmodel/eth_reg2ahb_adapter.sv(46) @ 375000: reporter [eth_reg2ahb_adapter] bus2reg: address = 0x4c, data = 0x8faf725, kind = UVM_WRITE, status = UVM_IS_OK
# UVM_INFO @ 375000: reporter [RegModel] Wrote register via map regmodel.ahb_map: regmodel.TX_DATA=0x8faf725
# UVM_INFO ./../regmodel/eth_reg2ahb_adapter.sv(31) @ 375000: reporter [eth_reg2ahb_adapter] reg2bus: address = 0x4c, data = 0x8db4082e, kind = WRITE
# UVM_INFO ./../vip/ahb_vip/ahb_driver.sv(28) @ 375000: uvm_test_top.env.ahb_agt.driver [run_phase] Start WRITE transaction - ADRRESS: 0x4c
# UVM_INFO ./../vip/ahb_vip/ahb_monitor.sv(135) @ 395000: uvm_test_top.env.ahb_agt.monitor [ahb_monitor] Send trans from monitor to scoreboard: 
# ---------------------------------------------------
# Name           Type             Size  Value        
# ---------------------------------------------------
# trans          ahb_transaction  -     @1596        
#   xact_type    xact_type_enum   1     WRITE        
#   xfer_size    hsize_e          3     HSIZE_WORD   
#   burst_type   hburst_e         3     HBURST_SINGLE
#   addr         integral         10    'h4c         
#   data         integral         32    'h8db4082e   
#   write        integral         1     1            
#   wdata        integral         32    'h8db4082e   
#   rdata        integral         32    'h0          
#   size         hsize_e          3     HSIZE_WORD   
#   burst        hburst_e         3     HBURST_SINGLE
#   prot         integral         4     'h0          
#   lock         integral         1     'h0          
#   resp         hresp_e          1     HRESP_OKAY   
#   num_beats    integral         32    'd1          
#   idle_cycles  integral         32    'd0          
#   addr_q       da(integral)     0     -            
#   wdata_q      da(integral)     1     -            
#     [0]        integral         32    'h8db4082e   
#   rdata_q      da(integral)     0     -            
#   resp_q       array(hresp_e)   1     -            
#     [0]        hresp_e          1     HRESP_OKAY   
#   htrans       htrans_e         2     HTRANS_NONSEQ
#   trans        htrans_e         2     HTRANS_NONSEQ
#   beat_addr    da(integral)     1     -            
#     [0]        integral         10    'h4c         
#   beat_wdata   da(integral)     1     -            
#     [0]        integral         32    'h8db4082e   
#   beat_rdata   da(integral)     0     -            
#   beat_resp    array(hresp_e)   1     -            
#     [0]        hresp_e          1     HRESP_OKAY   
#   beat_index   integral         32    'd0          
# ---------------------------------------------------
# 
# UVM_INFO ./../regmodel/eth_reg2ahb_adapter.sv(46) @ 395000: reporter [eth_reg2ahb_adapter] bus2reg: address = 0x4c, data = 0x8db4082e, kind = UVM_WRITE, status = UVM_IS_OK
# UVM_INFO /home/venus/QuestaSim/uvm-1.2/src/reg/uvm_reg_predictor.svh(218) @ 395000: uvm_test_top.env.ahb_predictor [REG_PREDICT] Observed WRITE transaction to register regmodel.TX_DATA: value='h8db4082e : updated value = 'h8db4082e
# UVM_INFO ./../vip/ahb_vip/ahb_driver.sv(47) @ 395000: uvm_test_top.env.ahb_agt.driver [run_phase] Completed WRITE transaction at addr 0x4c and data: 0x8db4082e
# UVM_INFO ./../regmodel/eth_reg2ahb_adapter.sv(46) @ 395000: reporter [eth_reg2ahb_adapter] bus2reg: address = 0x4c, data = 0x8db4082e, kind = UVM_WRITE, status = UVM_IS_OK
# UVM_INFO @ 395000: reporter [RegModel] Wrote register via map regmodel.ahb_map: regmodel.TX_DATA=0x8db4082e
# UVM_INFO ./../regmodel/eth_reg2ahb_adapter.sv(31) @ 395000: reporter [eth_reg2ahb_adapter] reg2bus: address = 0x4c, data = 0xe8be3e48, kind = WRITE
# UVM_INFO ./../vip/ahb_vip/ahb_driver.sv(28) @ 395000: uvm_test_top.env.ahb_agt.driver [run_phase] Start WRITE transaction - ADRRESS: 0x4c
# UVM_INFO ./../vip/ahb_vip/ahb_monitor.sv(135) @ 415000: uvm_test_top.env.ahb_agt.monitor [ahb_monitor] Send trans from monitor to scoreboard: 
# ---------------------------------------------------
# Name           Type             Size  Value        
# ---------------------------------------------------
# trans          ahb_transaction  -     @1638        
#   xact_type    xact_type_enum   1     WRITE        
#   xfer_size    hsize_e          3     HSIZE_WORD   
#   burst_type   hburst_e         3     HBURST_SINGLE
#   addr         integral         10    'h4c         
#   data         integral         32    'he8be3e48   
#   write        integral         1     1            
#   wdata        integral         32    'he8be3e48   
#   rdata        integral         32    'h0          
#   size         hsize_e          3     HSIZE_WORD   
#   burst        hburst_e         3     HBURST_SINGLE
#   prot         integral         4     'h0          
#   lock         integral         1     'h0          
#   resp         hresp_e          1     HRESP_OKAY   
#   num_beats    integral         32    'd1          
#   idle_cycles  integral         32    'd0          
#   addr_q       da(integral)     0     -            
#   wdata_q      da(integral)     1     -            
#     [0]        integral         32    'he8be3e48   
#   rdata_q      da(integral)     0     -            
#   resp_q       array(hresp_e)   1     -            
#     [0]        hresp_e          1     HRESP_OKAY   
#   htrans       htrans_e         2     HTRANS_NONSEQ
#   trans        htrans_e         2     HTRANS_NONSEQ
#   beat_addr    da(integral)     1     -            
#     [0]        integral         10    'h4c         
#   beat_wdata   da(integral)     1     -            
#     [0]        integral         32    'he8be3e48   
#   beat_rdata   da(integral)     0     -            
#   beat_resp    array(hresp_e)   1     -            
#     [0]        hresp_e          1     HRESP_OKAY   
#   beat_index   integral         32    'd0          
# ---------------------------------------------------
# 
# UVM_INFO ./../regmodel/eth_reg2ahb_adapter.sv(46) @ 415000: reporter [eth_reg2ahb_adapter] bus2reg: address = 0x4c, data = 0xe8be3e48, kind = UVM_WRITE, status = UVM_IS_OK
# UVM_INFO /home/venus/QuestaSim/uvm-1.2/src/reg/uvm_reg_predictor.svh(218) @ 415000: uvm_test_top.env.ahb_predictor [REG_PREDICT] Observed WRITE transaction to register regmodel.TX_DATA: value='he8be3e48 : updated value = 'he8be3e48
# UVM_INFO ./../vip/ahb_vip/ahb_driver.sv(47) @ 415000: uvm_test_top.env.ahb_agt.driver [run_phase] Completed WRITE transaction at addr 0x4c and data: 0xe8be3e48
# UVM_INFO ./../regmodel/eth_reg2ahb_adapter.sv(46) @ 415000: reporter [eth_reg2ahb_adapter] bus2reg: address = 0x4c, data = 0xe8be3e48, kind = UVM_WRITE, status = UVM_IS_OK
# UVM_INFO @ 415000: reporter [RegModel] Wrote register via map regmodel.ahb_map: regmodel.TX_DATA=0xe8be3e48
# UVM_INFO ./../regmodel/eth_reg2ahb_adapter.sv(31) @ 415000: reporter [eth_reg2ahb_adapter] reg2bus: address = 0x4c, data = 0xe506f7a, kind = WRITE
# UVM_INFO ./../vip/ahb_vip/ahb_driver.sv(28) @ 415000: uvm_test_top.env.ahb_agt.driver [run_phase] Start WRITE transaction - ADRRESS: 0x4c
# UVM_INFO ./../vip/ahb_vip/ahb_monitor.sv(135) @ 435000: uvm_test_top.env.ahb_agt.monitor [ahb_monitor] Send trans from monitor to scoreboard: 
# ---------------------------------------------------
# Name           Type             Size  Value        
# ---------------------------------------------------
# trans          ahb_transaction  -     @1680        
#   xact_type    xact_type_enum   1     WRITE        
#   xfer_size    hsize_e          3     HSIZE_WORD   
#   burst_type   hburst_e         3     HBURST_SINGLE
#   addr         integral         10    'h4c         
#   data         integral         32    'he506f7a    
#   write        integral         1     1            
#   wdata        integral         32    'he506f7a    
#   rdata        integral         32    'h0          
#   size         hsize_e          3     HSIZE_WORD   
#   burst        hburst_e         3     HBURST_SINGLE
#   prot         integral         4     'h0          
#   lock         integral         1     'h0          
#   resp         hresp_e          1     HRESP_OKAY   
#   num_beats    integral         32    'd1          
#   idle_cycles  integral         32    'd0          
#   addr_q       da(integral)     0     -            
#   wdata_q      da(integral)     1     -            
#     [0]        integral         32    'he506f7a    
#   rdata_q      da(integral)     0     -            
#   resp_q       array(hresp_e)   1     -            
#     [0]        hresp_e          1     HRESP_OKAY   
#   htrans       htrans_e         2     HTRANS_NONSEQ
#   trans        htrans_e         2     HTRANS_NONSEQ
#   beat_addr    da(integral)     1     -            
#     [0]        integral         10    'h4c         
#   beat_wdata   da(integral)     1     -            
#     [0]        integral         32    'he506f7a    
#   beat_rdata   da(integral)     0     -            
#   beat_resp    array(hresp_e)   1     -            
#     [0]        hresp_e          1     HRESP_OKAY   
#   beat_index   integral         32    'd0          
# ---------------------------------------------------
# 
# UVM_INFO ./../regmodel/eth_reg2ahb_adapter.sv(46) @ 435000: reporter [eth_reg2ahb_adapter] bus2reg: address = 0x4c, data = 0xe506f7a, kind = UVM_WRITE, status = UVM_IS_OK
# UVM_INFO /home/venus/QuestaSim/uvm-1.2/src/reg/uvm_reg_predictor.svh(218) @ 435000: uvm_test_top.env.ahb_predictor [REG_PREDICT] Observed WRITE transaction to register regmodel.TX_DATA: value='he506f7a : updated value = 'he506f7a
# UVM_INFO ./../vip/ahb_vip/ahb_driver.sv(47) @ 435000: uvm_test_top.env.ahb_agt.driver [run_phase] Completed WRITE transaction at addr 0x4c and data: 0xe506f7a
# UVM_INFO ./../regmodel/eth_reg2ahb_adapter.sv(46) @ 435000: reporter [eth_reg2ahb_adapter] bus2reg: address = 0x4c, data = 0xe506f7a, kind = UVM_WRITE, status = UVM_IS_OK
# UVM_INFO @ 435000: reporter [RegModel] Wrote register via map regmodel.ahb_map: regmodel.TX_DATA=0xe506f7a
# UVM_INFO ./../regmodel/eth_reg2ahb_adapter.sv(31) @ 435000: reporter [eth_reg2ahb_adapter] reg2bus: address = 0x4c, data = 0x41309a5, kind = WRITE
# UVM_INFO ./../vip/ahb_vip/ahb_driver.sv(28) @ 435000: uvm_test_top.env.ahb_agt.driver [run_phase] Start WRITE transaction - ADRRESS: 0x4c
# UVM_INFO ./../vip/ahb_vip/ahb_monitor.sv(135) @ 455000: uvm_test_top.env.ahb_agt.monitor [ahb_monitor] Send trans from monitor to scoreboard: 
# ---------------------------------------------------
# Name           Type             Size  Value        
# ---------------------------------------------------
# trans          ahb_transaction  -     @1722        
#   xact_type    xact_type_enum   1     WRITE        
#   xfer_size    hsize_e          3     HSIZE_WORD   
#   burst_type   hburst_e         3     HBURST_SINGLE
#   addr         integral         10    'h4c         
#   data         integral         32    'h41309a5    
#   write        integral         1     1            
#   wdata        integral         32    'h41309a5    
#   rdata        integral         32    'h0          
#   size         hsize_e          3     HSIZE_WORD   
#   burst        hburst_e         3     HBURST_SINGLE
#   prot         integral         4     'h0          
#   lock         integral         1     'h0          
#   resp         hresp_e          1     HRESP_OKAY   
#   num_beats    integral         32    'd1          
#   idle_cycles  integral         32    'd0          
#   addr_q       da(integral)     0     -            
#   wdata_q      da(integral)     1     -            
#     [0]        integral         32    'h41309a5    
#   rdata_q      da(integral)     0     -            
#   resp_q       array(hresp_e)   1     -            
#     [0]        hresp_e          1     HRESP_OKAY   
#   htrans       htrans_e         2     HTRANS_NONSEQ
#   trans        htrans_e         2     HTRANS_NONSEQ
#   beat_addr    da(integral)     1     -            
#     [0]        integral         10    'h4c         
#   beat_wdata   da(integral)     1     -            
#     [0]        integral         32    'h41309a5    
#   beat_rdata   da(integral)     0     -            
#   beat_resp    array(hresp_e)   1     -            
#     [0]        hresp_e          1     HRESP_OKAY   
#   beat_index   integral         32    'd0          
# ---------------------------------------------------
# 
# UVM_INFO ./../regmodel/eth_reg2ahb_adapter.sv(46) @ 455000: reporter [eth_reg2ahb_adapter] bus2reg: address = 0x4c, data = 0x41309a5, kind = UVM_WRITE, status = UVM_IS_OK
# UVM_INFO /home/venus/QuestaSim/uvm-1.2/src/reg/uvm_reg_predictor.svh(218) @ 455000: uvm_test_top.env.ahb_predictor [REG_PREDICT] Observed WRITE transaction to register regmodel.TX_DATA: value='h41309a5 : updated value = 'h41309a5
# UVM_INFO ./../vip/ahb_vip/ahb_driver.sv(47) @ 455000: uvm_test_top.env.ahb_agt.driver [run_phase] Completed WRITE transaction at addr 0x4c and data: 0x41309a5
# UVM_INFO ./../regmodel/eth_reg2ahb_adapter.sv(46) @ 455000: reporter [eth_reg2ahb_adapter] bus2reg: address = 0x4c, data = 0x41309a5, kind = UVM_WRITE, status = UVM_IS_OK
# UVM_INFO @ 455000: reporter [RegModel] Wrote register via map regmodel.ahb_map: regmodel.TX_DATA=0x41309a5
# UVM_INFO ./../regmodel/eth_reg2ahb_adapter.sv(31) @ 455000: reporter [eth_reg2ahb_adapter] reg2bus: address = 0x4c, data = 0xc9d42424, kind = WRITE
# UVM_INFO ./../vip/ahb_vip/ahb_driver.sv(28) @ 455000: uvm_test_top.env.ahb_agt.driver [run_phase] Start WRITE transaction - ADRRESS: 0x4c
# UVM_INFO ./../vip/ahb_vip/ahb_monitor.sv(135) @ 475000: uvm_test_top.env.ahb_agt.monitor [ahb_monitor] Send trans from monitor to scoreboard: 
# ---------------------------------------------------
# Name           Type             Size  Value        
# ---------------------------------------------------
# trans          ahb_transaction  -     @1764        
#   xact_type    xact_type_enum   1     WRITE        
#   xfer_size    hsize_e          3     HSIZE_WORD   
#   burst_type   hburst_e         3     HBURST_SINGLE
#   addr         integral         10    'h4c         
#   data         integral         32    'hc9d42424   
#   write        integral         1     1            
#   wdata        integral         32    'hc9d42424   
#   rdata        integral         32    'h0          
#   size         hsize_e          3     HSIZE_WORD   
#   burst        hburst_e         3     HBURST_SINGLE
#   prot         integral         4     'h0          
#   lock         integral         1     'h0          
#   resp         hresp_e          1     HRESP_OKAY   
#   num_beats    integral         32    'd1          
#   idle_cycles  integral         32    'd0          
#   addr_q       da(integral)     0     -            
#   wdata_q      da(integral)     1     -            
#     [0]        integral         32    'hc9d42424   
#   rdata_q      da(integral)     0     -            
#   resp_q       array(hresp_e)   1     -            
#     [0]        hresp_e          1     HRESP_OKAY   
#   htrans       htrans_e         2     HTRANS_NONSEQ
#   trans        htrans_e         2     HTRANS_NONSEQ
#   beat_addr    da(integral)     1     -            
#     [0]        integral         10    'h4c         
#   beat_wdata   da(integral)     1     -            
#     [0]        integral         32    'hc9d42424   
#   beat_rdata   da(integral)     0     -            
#   beat_resp    array(hresp_e)   1     -            
#     [0]        hresp_e          1     HRESP_OKAY   
#   beat_index   integral         32    'd0          
# ---------------------------------------------------
# 
# UVM_INFO ./../regmodel/eth_reg2ahb_adapter.sv(46) @ 475000: reporter [eth_reg2ahb_adapter] bus2reg: address = 0x4c, data = 0xc9d42424, kind = UVM_WRITE, status = UVM_IS_OK
# UVM_INFO /home/venus/QuestaSim/uvm-1.2/src/reg/uvm_reg_predictor.svh(218) @ 475000: uvm_test_top.env.ahb_predictor [REG_PREDICT] Observed WRITE transaction to register regmodel.TX_DATA: value='hc9d42424 : updated value = 'hc9d42424
# UVM_INFO ./../vip/ahb_vip/ahb_driver.sv(47) @ 475000: uvm_test_top.env.ahb_agt.driver [run_phase] Completed WRITE transaction at addr 0x4c and data: 0xc9d42424
# UVM_INFO ./../regmodel/eth_reg2ahb_adapter.sv(46) @ 475000: reporter [eth_reg2ahb_adapter] bus2reg: address = 0x4c, data = 0xc9d42424, kind = UVM_WRITE, status = UVM_IS_OK
# UVM_INFO @ 475000: reporter [RegModel] Wrote register via map regmodel.ahb_map: regmodel.TX_DATA=0xc9d42424
# UVM_INFO ./../regmodel/eth_reg2ahb_adapter.sv(31) @ 475000: reporter [eth_reg2ahb_adapter] reg2bus: address = 0x4c, data = 0x83200a5a, kind = WRITE
# UVM_INFO ./../vip/ahb_vip/ahb_driver.sv(28) @ 475000: uvm_test_top.env.ahb_agt.driver [run_phase] Start WRITE transaction - ADRRESS: 0x4c
# UVM_INFO ./../vip/ahb_vip/ahb_monitor.sv(135) @ 495000: uvm_test_top.env.ahb_agt.monitor [ahb_monitor] Send trans from monitor to scoreboard: 
# ---------------------------------------------------
# Name           Type             Size  Value        
# ---------------------------------------------------
# trans          ahb_transaction  -     @1806        
#   xact_type    xact_type_enum   1     WRITE        
#   xfer_size    hsize_e          3     HSIZE_WORD   
#   burst_type   hburst_e         3     HBURST_SINGLE
#   addr         integral         10    'h4c         
#   data         integral         32    'h83200a5a   
#   write        integral         1     1            
#   wdata        integral         32    'h83200a5a   
#   rdata        integral         32    'h0          
#   size         hsize_e          3     HSIZE_WORD   
#   burst        hburst_e         3     HBURST_SINGLE
#   prot         integral         4     'h0          
#   lock         integral         1     'h0          
#   resp         hresp_e          1     HRESP_OKAY   
#   num_beats    integral         32    'd1          
#   idle_cycles  integral         32    'd0          
#   addr_q       da(integral)     0     -            
#   wdata_q      da(integral)     1     -            
#     [0]        integral         32    'h83200a5a   
#   rdata_q      da(integral)     0     -            
#   resp_q       array(hresp_e)   1     -            
#     [0]        hresp_e          1     HRESP_OKAY   
#   htrans       htrans_e         2     HTRANS_NONSEQ
#   trans        htrans_e         2     HTRANS_NONSEQ
#   beat_addr    da(integral)     1     -            
#     [0]        integral         10    'h4c         
#   beat_wdata   da(integral)     1     -            
#     [0]        integral         32    'h83200a5a   
#   beat_rdata   da(integral)     0     -            
#   beat_resp    array(hresp_e)   1     -            
#     [0]        hresp_e          1     HRESP_OKAY   
#   beat_index   integral         32    'd0          
# ---------------------------------------------------
# 
# UVM_INFO ./../regmodel/eth_reg2ahb_adapter.sv(46) @ 495000: reporter [eth_reg2ahb_adapter] bus2reg: address = 0x4c, data = 0x83200a5a, kind = UVM_WRITE, status = UVM_IS_OK
# UVM_INFO /home/venus/QuestaSim/uvm-1.2/src/reg/uvm_reg_predictor.svh(218) @ 495000: uvm_test_top.env.ahb_predictor [REG_PREDICT] Observed WRITE transaction to register regmodel.TX_DATA: value='h83200a5a : updated value = 'h83200a5a
# UVM_INFO ./../vip/ahb_vip/ahb_driver.sv(47) @ 495000: uvm_test_top.env.ahb_agt.driver [run_phase] Completed WRITE transaction at addr 0x4c and data: 0x83200a5a
# UVM_INFO ./../regmodel/eth_reg2ahb_adapter.sv(46) @ 495000: reporter [eth_reg2ahb_adapter] bus2reg: address = 0x4c, data = 0x83200a5a, kind = UVM_WRITE, status = UVM_IS_OK
# UVM_INFO @ 495000: reporter [RegModel] Wrote register via map regmodel.ahb_map: regmodel.TX_DATA=0x83200a5a
# UVM_INFO ./../regmodel/eth_reg2ahb_adapter.sv(31) @ 495000: reporter [eth_reg2ahb_adapter] reg2bus: address = 0x4c, data = 0x7cc7ce48, kind = WRITE
# UVM_INFO ./../vip/ahb_vip/ahb_driver.sv(28) @ 495000: uvm_test_top.env.ahb_agt.driver [run_phase] Start WRITE transaction - ADRRESS: 0x4c
# UVM_INFO ./../vip/ahb_vip/ahb_monitor.sv(135) @ 515000: uvm_test_top.env.ahb_agt.monitor [ahb_monitor] Send trans from monitor to scoreboard: 
# ---------------------------------------------------
# Name           Type             Size  Value        
# ---------------------------------------------------
# trans          ahb_transaction  -     @1848        
#   xact_type    xact_type_enum   1     WRITE        
#   xfer_size    hsize_e          3     HSIZE_WORD   
#   burst_type   hburst_e         3     HBURST_SINGLE
#   addr         integral         10    'h4c         
#   data         integral         32    'h7cc7ce48   
#   write        integral         1     1            
#   wdata        integral         32    'h7cc7ce48   
#   rdata        integral         32    'h0          
#   size         hsize_e          3     HSIZE_WORD   
#   burst        hburst_e         3     HBURST_SINGLE
#   prot         integral         4     'h0          
#   lock         integral         1     'h0          
#   resp         hresp_e          1     HRESP_OKAY   
#   num_beats    integral         32    'd1          
#   idle_cycles  integral         32    'd0          
#   addr_q       da(integral)     0     -            
#   wdata_q      da(integral)     1     -            
#     [0]        integral         32    'h7cc7ce48   
#   rdata_q      da(integral)     0     -            
#   resp_q       array(hresp_e)   1     -            
#     [0]        hresp_e          1     HRESP_OKAY   
#   htrans       htrans_e         2     HTRANS_NONSEQ
#   trans        htrans_e         2     HTRANS_NONSEQ
#   beat_addr    da(integral)     1     -            
#     [0]        integral         10    'h4c         
#   beat_wdata   da(integral)     1     -            
#     [0]        integral         32    'h7cc7ce48   
#   beat_rdata   da(integral)     0     -            
#   beat_resp    array(hresp_e)   1     -            
#     [0]        hresp_e          1     HRESP_OKAY   
#   beat_index   integral         32    'd0          
# ---------------------------------------------------
# 
# UVM_INFO ./../regmodel/eth_reg2ahb_adapter.sv(46) @ 515000: reporter [eth_reg2ahb_adapter] bus2reg: address = 0x4c, data = 0x7cc7ce48, kind = UVM_WRITE, status = UVM_IS_OK
# UVM_INFO /home/venus/QuestaSim/uvm-1.2/src/reg/uvm_reg_predictor.svh(218) @ 515000: uvm_test_top.env.ahb_predictor [REG_PREDICT] Observed WRITE transaction to register regmodel.TX_DATA: value='h7cc7ce48 : updated value = 'h7cc7ce48
# UVM_INFO ./../vip/ahb_vip/ahb_driver.sv(47) @ 515000: uvm_test_top.env.ahb_agt.driver [run_phase] Completed WRITE transaction at addr 0x4c and data: 0x7cc7ce48
# UVM_INFO ./../regmodel/eth_reg2ahb_adapter.sv(46) @ 515000: reporter [eth_reg2ahb_adapter] bus2reg: address = 0x4c, data = 0x7cc7ce48, kind = UVM_WRITE, status = UVM_IS_OK
# UVM_INFO @ 515000: reporter [RegModel] Wrote register via map regmodel.ahb_map: regmodel.TX_DATA=0x7cc7ce48
# UVM_INFO ./../regmodel/eth_reg2ahb_adapter.sv(31) @ 515000: reporter [eth_reg2ahb_adapter] reg2bus: address = 0x4c, data = 0xb02e9955, kind = WRITE
# UVM_INFO ./../vip/ahb_vip/ahb_driver.sv(28) @ 515000: uvm_test_top.env.ahb_agt.driver [run_phase] Start WRITE transaction - ADRRESS: 0x4c
# UVM_INFO ./../vip/ahb_vip/ahb_monitor.sv(135) @ 535000: uvm_test_top.env.ahb_agt.monitor [ahb_monitor] Send trans from monitor to scoreboard: 
# ---------------------------------------------------
# Name           Type             Size  Value        
# ---------------------------------------------------
# trans          ahb_transaction  -     @1890        
#   xact_type    xact_type_enum   1     WRITE        
#   xfer_size    hsize_e          3     HSIZE_WORD   
#   burst_type   hburst_e         3     HBURST_SINGLE
#   addr         integral         10    'h4c         
#   data         integral         32    'hb02e9955   
#   write        integral         1     1            
#   wdata        integral         32    'hb02e9955   
#   rdata        integral         32    'h0          
#   size         hsize_e          3     HSIZE_WORD   
#   burst        hburst_e         3     HBURST_SINGLE
#   prot         integral         4     'h0          
#   lock         integral         1     'h0          
#   resp         hresp_e          1     HRESP_OKAY   
#   num_beats    integral         32    'd1          
#   idle_cycles  integral         32    'd0          
#   addr_q       da(integral)     0     -            
#   wdata_q      da(integral)     1     -            
#     [0]        integral         32    'hb02e9955   
#   rdata_q      da(integral)     0     -            
#   resp_q       array(hresp_e)   1     -            
#     [0]        hresp_e          1     HRESP_OKAY   
#   htrans       htrans_e         2     HTRANS_NONSEQ
#   trans        htrans_e         2     HTRANS_NONSEQ
#   beat_addr    da(integral)     1     -            
#     [0]        integral         10    'h4c         
#   beat_wdata   da(integral)     1     -            
#     [0]        integral         32    'hb02e9955   
#   beat_rdata   da(integral)     0     -            
#   beat_resp    array(hresp_e)   1     -            
#     [0]        hresp_e          1     HRESP_OKAY   
#   beat_index   integral         32    'd0          
# ---------------------------------------------------
# 
# UVM_INFO ./../regmodel/eth_reg2ahb_adapter.sv(46) @ 535000: reporter [eth_reg2ahb_adapter] bus2reg: address = 0x4c, data = 0xb02e9955, kind = UVM_WRITE, status = UVM_IS_OK
# UVM_INFO /home/venus/QuestaSim/uvm-1.2/src/reg/uvm_reg_predictor.svh(218) @ 535000: uvm_test_top.env.ahb_predictor [REG_PREDICT] Observed WRITE transaction to register regmodel.TX_DATA: value='hb02e9955 : updated value = 'hb02e9955
# UVM_INFO ./../vip/ahb_vip/ahb_driver.sv(47) @ 535000: uvm_test_top.env.ahb_agt.driver [run_phase] Completed WRITE transaction at addr 0x4c and data: 0xb02e9955
# UVM_INFO ./../regmodel/eth_reg2ahb_adapter.sv(46) @ 535000: reporter [eth_reg2ahb_adapter] bus2reg: address = 0x4c, data = 0xb02e9955, kind = UVM_WRITE, status = UVM_IS_OK
# UVM_INFO @ 535000: reporter [RegModel] Wrote register via map regmodel.ahb_map: regmodel.TX_DATA=0xb02e9955
# UVM_INFO ./../regmodel/eth_reg2ahb_adapter.sv(31) @ 535000: reporter [eth_reg2ahb_adapter] reg2bus: address = 0x4c, data = 0x7fdeafa, kind = WRITE
# UVM_INFO ./../vip/ahb_vip/ahb_driver.sv(28) @ 535000: uvm_test_top.env.ahb_agt.driver [run_phase] Start WRITE transaction - ADRRESS: 0x4c
# UVM_INFO ./../vip/ahb_vip/ahb_monitor.sv(135) @ 555000: uvm_test_top.env.ahb_agt.monitor [ahb_monitor] Send trans from monitor to scoreboard: 
# ---------------------------------------------------
# Name           Type             Size  Value        
# ---------------------------------------------------
# trans          ahb_transaction  -     @1932        
#   xact_type    xact_type_enum   1     WRITE        
#   xfer_size    hsize_e          3     HSIZE_WORD   
#   burst_type   hburst_e         3     HBURST_SINGLE
#   addr         integral         10    'h4c         
#   data         integral         32    'h7fdeafa    
#   write        integral         1     1            
#   wdata        integral         32    'h7fdeafa    
#   rdata        integral         32    'h0          
#   size         hsize_e          3     HSIZE_WORD   
#   burst        hburst_e         3     HBURST_SINGLE
#   prot         integral         4     'h0          
#   lock         integral         1     'h0          
#   resp         hresp_e          1     HRESP_OKAY   
#   num_beats    integral         32    'd1          
#   idle_cycles  integral         32    'd0          
#   addr_q       da(integral)     0     -            
#   wdata_q      da(integral)     1     -            
#     [0]        integral         32    'h7fdeafa    
#   rdata_q      da(integral)     0     -            
#   resp_q       array(hresp_e)   1     -            
#     [0]        hresp_e          1     HRESP_OKAY   
#   htrans       htrans_e         2     HTRANS_NONSEQ
#   trans        htrans_e         2     HTRANS_NONSEQ
#   beat_addr    da(integral)     1     -            
#     [0]        integral         10    'h4c         
#   beat_wdata   da(integral)     1     -            
#     [0]        integral         32    'h7fdeafa    
#   beat_rdata   da(integral)     0     -            
#   beat_resp    array(hresp_e)   1     -            
#     [0]        hresp_e          1     HRESP_OKAY   
#   beat_index   integral         32    'd0          
# ---------------------------------------------------
# 
# UVM_INFO ./../regmodel/eth_reg2ahb_adapter.sv(46) @ 555000: reporter [eth_reg2ahb_adapter] bus2reg: address = 0x4c, data = 0x7fdeafa, kind = UVM_WRITE, status = UVM_IS_OK
# UVM_INFO /home/venus/QuestaSim/uvm-1.2/src/reg/uvm_reg_predictor.svh(218) @ 555000: uvm_test_top.env.ahb_predictor [REG_PREDICT] Observed WRITE transaction to register regmodel.TX_DATA: value='h7fdeafa : updated value = 'h7fdeafa
# UVM_INFO ./../vip/ahb_vip/ahb_driver.sv(47) @ 555000: uvm_test_top.env.ahb_agt.driver [run_phase] Completed WRITE transaction at addr 0x4c and data: 0x7fdeafa
# UVM_INFO ./../regmodel/eth_reg2ahb_adapter.sv(46) @ 555000: reporter [eth_reg2ahb_adapter] bus2reg: address = 0x4c, data = 0x7fdeafa, kind = UVM_WRITE, status = UVM_IS_OK
# UVM_INFO @ 555000: reporter [RegModel] Wrote register via map regmodel.ahb_map: regmodel.TX_DATA=0x7fdeafa
# UVM_INFO ./../regmodel/eth_reg2ahb_adapter.sv(31) @ 555000: reporter [eth_reg2ahb_adapter] reg2bus: address = 0x4c, data = 0x663ad4d5, kind = WRITE
# UVM_INFO ./../vip/ahb_vip/ahb_driver.sv(28) @ 555000: uvm_test_top.env.ahb_agt.driver [run_phase] Start WRITE transaction - ADRRESS: 0x4c
# UVM_INFO ./../vip/ahb_vip/ahb_monitor.sv(135) @ 575000: uvm_test_top.env.ahb_agt.monitor [ahb_monitor] Send trans from monitor to scoreboard: 
# ---------------------------------------------------
# Name           Type             Size  Value        
# ---------------------------------------------------
# trans          ahb_transaction  -     @1974        
#   xact_type    xact_type_enum   1     WRITE        
#   xfer_size    hsize_e          3     HSIZE_WORD   
#   burst_type   hburst_e         3     HBURST_SINGLE
#   addr         integral         10    'h4c         
#   data         integral         32    'h663ad4d5   
#   write        integral         1     1            
#   wdata        integral         32    'h663ad4d5   
#   rdata        integral         32    'h0          
#   size         hsize_e          3     HSIZE_WORD   
#   burst        hburst_e         3     HBURST_SINGLE
#   prot         integral         4     'h0          
#   lock         integral         1     'h0          
#   resp         hresp_e          1     HRESP_OKAY   
#   num_beats    integral         32    'd1          
#   idle_cycles  integral         32    'd0          
#   addr_q       da(integral)     0     -            
#   wdata_q      da(integral)     1     -            
#     [0]        integral         32    'h663ad4d5   
#   rdata_q      da(integral)     0     -            
#   resp_q       array(hresp_e)   1     -            
#     [0]        hresp_e          1     HRESP_OKAY   
#   htrans       htrans_e         2     HTRANS_NONSEQ
#   trans        htrans_e         2     HTRANS_NONSEQ
#   beat_addr    da(integral)     1     -            
#     [0]        integral         10    'h4c         
#   beat_wdata   da(integral)     1     -            
#     [0]        integral         32    'h663ad4d5   
#   beat_rdata   da(integral)     0     -            
#   beat_resp    array(hresp_e)   1     -            
#     [0]        hresp_e          1     HRESP_OKAY   
#   beat_index   integral         32    'd0          
# ---------------------------------------------------
# 
# UVM_INFO ./../regmodel/eth_reg2ahb_adapter.sv(46) @ 575000: reporter [eth_reg2ahb_adapter] bus2reg: address = 0x4c, data = 0x663ad4d5, kind = UVM_WRITE, status = UVM_IS_OK
# UVM_INFO /home/venus/QuestaSim/uvm-1.2/src/reg/uvm_reg_predictor.svh(218) @ 575000: uvm_test_top.env.ahb_predictor [REG_PREDICT] Observed WRITE transaction to register regmodel.TX_DATA: value='h663ad4d5 : updated value = 'h663ad4d5
# UVM_INFO ./../vip/ahb_vip/ahb_driver.sv(47) @ 575000: uvm_test_top.env.ahb_agt.driver [run_phase] Completed WRITE transaction at addr 0x4c and data: 0x663ad4d5
# UVM_INFO ./../regmodel/eth_reg2ahb_adapter.sv(46) @ 575000: reporter [eth_reg2ahb_adapter] bus2reg: address = 0x4c, data = 0x663ad4d5, kind = UVM_WRITE, status = UVM_IS_OK
# UVM_INFO @ 575000: reporter [RegModel] Wrote register via map regmodel.ahb_map: regmodel.TX_DATA=0x663ad4d5
# UVM_INFO ./../regmodel/eth_reg2ahb_adapter.sv(31) @ 575000: reporter [eth_reg2ahb_adapter] reg2bus: address = 0x4c, data = 0x2ab377e4, kind = WRITE
# UVM_INFO ./../vip/ahb_vip/ahb_driver.sv(28) @ 575000: uvm_test_top.env.ahb_agt.driver [run_phase] Start WRITE transaction - ADRRESS: 0x4c
# UVM_INFO ./../vip/ahb_vip/ahb_monitor.sv(135) @ 595000: uvm_test_top.env.ahb_agt.monitor [ahb_monitor] Send trans from monitor to scoreboard: 
# ---------------------------------------------------
# Name           Type             Size  Value        
# ---------------------------------------------------
# trans          ahb_transaction  -     @2016        
#   xact_type    xact_type_enum   1     WRITE        
#   xfer_size    hsize_e          3     HSIZE_WORD   
#   burst_type   hburst_e         3     HBURST_SINGLE
#   addr         integral         10    'h4c         
#   data         integral         32    'h2ab377e4   
#   write        integral         1     1            
#   wdata        integral         32    'h2ab377e4   
#   rdata        integral         32    'h0          
#   size         hsize_e          3     HSIZE_WORD   
#   burst        hburst_e         3     HBURST_SINGLE
#   prot         integral         4     'h0          
#   lock         integral         1     'h0          
#   resp         hresp_e          1     HRESP_OKAY   
#   num_beats    integral         32    'd1          
#   idle_cycles  integral         32    'd0          
#   addr_q       da(integral)     0     -            
#   wdata_q      da(integral)     1     -            
#     [0]        integral         32    'h2ab377e4   
#   rdata_q      da(integral)     0     -            
#   resp_q       array(hresp_e)   1     -            
#     [0]        hresp_e          1     HRESP_OKAY   
#   htrans       htrans_e         2     HTRANS_NONSEQ
#   trans        htrans_e         2     HTRANS_NONSEQ
#   beat_addr    da(integral)     1     -            
#     [0]        integral         10    'h4c         
#   beat_wdata   da(integral)     1     -            
#     [0]        integral         32    'h2ab377e4   
#   beat_rdata   da(integral)     0     -            
#   beat_resp    array(hresp_e)   1     -            
#     [0]        hresp_e          1     HRESP_OKAY   
#   beat_index   integral         32    'd0          
# ---------------------------------------------------
# 
# UVM_INFO ./../regmodel/eth_reg2ahb_adapter.sv(46) @ 595000: reporter [eth_reg2ahb_adapter] bus2reg: address = 0x4c, data = 0x2ab377e4, kind = UVM_WRITE, status = UVM_IS_OK
# UVM_INFO /home/venus/QuestaSim/uvm-1.2/src/reg/uvm_reg_predictor.svh(218) @ 595000: uvm_test_top.env.ahb_predictor [REG_PREDICT] Observed WRITE transaction to register regmodel.TX_DATA: value='h2ab377e4 : updated value = 'h2ab377e4
# UVM_INFO ./../vip/ahb_vip/ahb_driver.sv(47) @ 595000: uvm_test_top.env.ahb_agt.driver [run_phase] Completed WRITE transaction at addr 0x4c and data: 0x2ab377e4
# UVM_INFO ./../regmodel/eth_reg2ahb_adapter.sv(46) @ 595000: reporter [eth_reg2ahb_adapter] bus2reg: address = 0x4c, data = 0x2ab377e4, kind = UVM_WRITE, status = UVM_IS_OK
# UVM_INFO @ 595000: reporter [RegModel] Wrote register via map regmodel.ahb_map: regmodel.TX_DATA=0x2ab377e4
# UVM_INFO ./../regmodel/eth_reg2ahb_adapter.sv(31) @ 595000: reporter [eth_reg2ahb_adapter] reg2bus: address = 0x4c, data = 0xa4dde327, kind = WRITE
# UVM_INFO ./../vip/ahb_vip/ahb_driver.sv(28) @ 595000: uvm_test_top.env.ahb_agt.driver [run_phase] Start WRITE transaction - ADRRESS: 0x4c
# UVM_INFO ./../vip/ahb_vip/ahb_monitor.sv(135) @ 615000: uvm_test_top.env.ahb_agt.monitor [ahb_monitor] Send trans from monitor to scoreboard: 
# ---------------------------------------------------
# Name           Type             Size  Value        
# ---------------------------------------------------
# trans          ahb_transaction  -     @2058        
#   xact_type    xact_type_enum   1     WRITE        
#   xfer_size    hsize_e          3     HSIZE_WORD   
#   burst_type   hburst_e         3     HBURST_SINGLE
#   addr         integral         10    'h4c         
#   data         integral         32    'ha4dde327   
#   write        integral         1     1            
#   wdata        integral         32    'ha4dde327   
#   rdata        integral         32    'h0          
#   size         hsize_e          3     HSIZE_WORD   
#   burst        hburst_e         3     HBURST_SINGLE
#   prot         integral         4     'h0          
#   lock         integral         1     'h0          
#   resp         hresp_e          1     HRESP_OKAY   
#   num_beats    integral         32    'd1          
#   idle_cycles  integral         32    'd0          
#   addr_q       da(integral)     0     -            
#   wdata_q      da(integral)     1     -            
#     [0]        integral         32    'ha4dde327   
#   rdata_q      da(integral)     0     -            
#   resp_q       array(hresp_e)   1     -            
#     [0]        hresp_e          1     HRESP_OKAY   
#   htrans       htrans_e         2     HTRANS_NONSEQ
#   trans        htrans_e         2     HTRANS_NONSEQ
#   beat_addr    da(integral)     1     -            
#     [0]        integral         10    'h4c         
#   beat_wdata   da(integral)     1     -            
#     [0]        integral         32    'ha4dde327   
#   beat_rdata   da(integral)     0     -            
#   beat_resp    array(hresp_e)   1     -            
#     [0]        hresp_e          1     HRESP_OKAY   
#   beat_index   integral         32    'd0          
# ---------------------------------------------------
# 
# UVM_INFO ./../regmodel/eth_reg2ahb_adapter.sv(46) @ 615000: reporter [eth_reg2ahb_adapter] bus2reg: address = 0x4c, data = 0xa4dde327, kind = UVM_WRITE, status = UVM_IS_OK
# UVM_INFO /home/venus/QuestaSim/uvm-1.2/src/reg/uvm_reg_predictor.svh(218) @ 615000: uvm_test_top.env.ahb_predictor [REG_PREDICT] Observed WRITE transaction to register regmodel.TX_DATA: value='ha4dde327 : updated value = 'ha4dde327
# UVM_INFO ./../vip/ahb_vip/ahb_driver.sv(47) @ 615000: uvm_test_top.env.ahb_agt.driver [run_phase] Completed WRITE transaction at addr 0x4c and data: 0xa4dde327
# UVM_INFO ./../regmodel/eth_reg2ahb_adapter.sv(46) @ 615000: reporter [eth_reg2ahb_adapter] bus2reg: address = 0x4c, data = 0xa4dde327, kind = UVM_WRITE, status = UVM_IS_OK
# UVM_INFO @ 615000: reporter [RegModel] Wrote register via map regmodel.ahb_map: regmodel.TX_DATA=0xa4dde327
# UVM_INFO ./../regmodel/eth_reg2ahb_adapter.sv(31) @ 615000: reporter [eth_reg2ahb_adapter] reg2bus: address = 0x4c, data = 0x46b7d954, kind = WRITE
# UVM_INFO ./../vip/ahb_vip/ahb_driver.sv(28) @ 615000: uvm_test_top.env.ahb_agt.driver [run_phase] Start WRITE transaction - ADRRESS: 0x4c
# UVM_INFO ./../vip/ahb_vip/ahb_monitor.sv(135) @ 635000: uvm_test_top.env.ahb_agt.monitor [ahb_monitor] Send trans from monitor to scoreboard: 
# ---------------------------------------------------
# Name           Type             Size  Value        
# ---------------------------------------------------
# trans          ahb_transaction  -     @2100        
#   xact_type    xact_type_enum   1     WRITE        
#   xfer_size    hsize_e          3     HSIZE_WORD   
#   burst_type   hburst_e         3     HBURST_SINGLE
#   addr         integral         10    'h4c         
#   data         integral         32    'h46b7d954   
#   write        integral         1     1            
#   wdata        integral         32    'h46b7d954   
#   rdata        integral         32    'h0          
#   size         hsize_e          3     HSIZE_WORD   
#   burst        hburst_e         3     HBURST_SINGLE
#   prot         integral         4     'h0          
#   lock         integral         1     'h0          
#   resp         hresp_e          1     HRESP_OKAY   
#   num_beats    integral         32    'd1          
#   idle_cycles  integral         32    'd0          
#   addr_q       da(integral)     0     -            
#   wdata_q      da(integral)     1     -            
#     [0]        integral         32    'h46b7d954   
#   rdata_q      da(integral)     0     -            
#   resp_q       array(hresp_e)   1     -            
#     [0]        hresp_e          1     HRESP_OKAY   
#   htrans       htrans_e         2     HTRANS_NONSEQ
#   trans        htrans_e         2     HTRANS_NONSEQ
#   beat_addr    da(integral)     1     -            
#     [0]        integral         10    'h4c         
#   beat_wdata   da(integral)     1     -            
#     [0]        integral         32    'h46b7d954   
#   beat_rdata   da(integral)     0     -            
#   beat_resp    array(hresp_e)   1     -            
#     [0]        hresp_e          1     HRESP_OKAY   
#   beat_index   integral         32    'd0          
# ---------------------------------------------------
# 
# UVM_INFO ./../regmodel/eth_reg2ahb_adapter.sv(46) @ 635000: reporter [eth_reg2ahb_adapter] bus2reg: address = 0x4c, data = 0x46b7d954, kind = UVM_WRITE, status = UVM_IS_OK
# UVM_INFO /home/venus/QuestaSim/uvm-1.2/src/reg/uvm_reg_predictor.svh(218) @ 635000: uvm_test_top.env.ahb_predictor [REG_PREDICT] Observed WRITE transaction to register regmodel.TX_DATA: value='h46b7d954 : updated value = 'h46b7d954
# UVM_INFO ./../vip/ahb_vip/ahb_driver.sv(47) @ 635000: uvm_test_top.env.ahb_agt.driver [run_phase] Completed WRITE transaction at addr 0x4c and data: 0x46b7d954
# UVM_INFO ./../regmodel/eth_reg2ahb_adapter.sv(46) @ 635000: reporter [eth_reg2ahb_adapter] bus2reg: address = 0x4c, data = 0x46b7d954, kind = UVM_WRITE, status = UVM_IS_OK
# UVM_INFO @ 635000: reporter [RegModel] Wrote register via map regmodel.ahb_map: regmodel.TX_DATA=0x46b7d954
# UVM_INFO ./../regmodel/eth_reg2ahb_adapter.sv(31) @ 635000: reporter [eth_reg2ahb_adapter] reg2bus: address = 0x4c, data = 0x1cc12737, kind = WRITE
# UVM_INFO ./../vip/ahb_vip/ahb_driver.sv(28) @ 635000: uvm_test_top.env.ahb_agt.driver [run_phase] Start WRITE transaction - ADRRESS: 0x4c
# UVM_INFO ./../vip/ahb_vip/ahb_monitor.sv(135) @ 655000: uvm_test_top.env.ahb_agt.monitor [ahb_monitor] Send trans from monitor to scoreboard: 
# ---------------------------------------------------
# Name           Type             Size  Value        
