# vsim -sv_seed 553605 -coverage -coveranalysis -voptargs="+acc" -assertdebug -c testbench -do "coverage save -codeAll -cvg -onexit full_10M_normal_uni_test_553605.ucdb; log -r /*;run -all;" -l full_10M_normal_uni_test_553605.log "+UVM_TESTNAME=full_10M_normal_uni_test" "+UVM_VERBOSITY=UVM_HIGH" 
# Start time: 13:29:20 on Jun 19,2026
# Loading /tmp/venus@nus-fedora_dpi_194220/linux_x86_64_gcc-15/export_tramp.so
# ** Note: (vsim-8009) Loading existing optimized design _opt
# //  Questa Sim-64
# //  Version 2021.2_1 linux_x86_64 May 15 2021
# //
# //  Copyright 1991-2021 Mentor Graphics Corporation
# //  All Rights Reserved.
# //
# //  QuestaSim and its associated documentation contain trade
# //  secrets and commercial or financial information that are the property of
# //  Mentor Graphics Corporation and are privileged, confidential,
# //  and exempt from disclosure under the Freedom of Information Act,
# //  5 U.S.C. Section 552. Furthermore, this information
# //  is prohibited from disclosure under the Trade Secrets Act,
# //  18 U.S.C. Section 1905.
# //
# ** Note: (vsim-8785) UVM-aware debugging capabilities will be disabled since no compiled "questa_uvm_pkg" can be found.
# This also means that later if you turn on UVM-aware debugging your debug simulations may have
# different random seeds from your non-debug simulations.
# Loading sv_std.std
# Loading work.ahb_if(fast)
# Loading work.phy_if(fast)
# Loading work.uvm_pkg(fast)
# Loading work.ahb_pkg(fast)
# Loading work.phy_pkg(fast)
# Loading work.seq_pkg(fast)
# Loading work.eth_register_pkg(fast)
# Loading work.eth_regmodel_pkg(fast)
# Loading work.env_pkg(fast)
# Loading work.test_pkg(fast)
# Loading work.testbench(fast)
# Loading work.ahb_if(fast__2)
# Loading work.phy_if(fast__2)
# Loading work.eth_top(fast)
# Loading work.eth_ahb_slave(fast)
# Loading work.eth_register(fast)
# Loading work.eth_sync_level(fast)
# Loading work.eth_sync_level(fast__1)
# Loading work.eth_sync_level(fast__2)
# Loading work.eth_sync_level(fast__3)
# Loading work.eth_tx_frame_buffer(fast)
# Loading work.eth_cdc_pulse(fast)
# Loading work.eth_sync_level(fast__4)
# Loading work.eth_tx_buffer_ctrl(fast)
# Loading work.eth_rx_mac(fast)
# Loading work.eth_rx_controller(fast)
# Loading work.eth_rx_cnt(fast)
# Loading work.eth_crc(fast)
# Loading work.eth_rx_addr_check(fast)
# Loading work.eth_rx_buffer_ctrl(fast)
# Loading work.eth_rx_frame_buffer(fast)
# Loading work.eth_sync_level(fast__5)
# Loading work.eth_rx_pause(fast)
# Loading work.eth_tx_pause(fast)
# Loading work.eth_tx_mac(fast)
# Loading work.eth_tx_cnt(fast)
# Loading work.eth_txstatem(fast)
# Loading work.eth_backoff_random(fast)
# Compiling /tmp/venus@nus-fedora_dpi_194220/linux_x86_64_gcc-15/exportwrapper.c
# Loading /tmp/venus@nus-fedora_dpi_194220/linux_x86_64_gcc-15/vsim_auto_compile.so
# coverage save -codeAll -cvg -onexit full_10M_normal_uni_test_553605.ucdb
#  log -r /*
# run -all
# UVM_INFO /home/venus/QuestaSim/uvm-1.2/src/base/uvm_root.svh(392) @ 0: reporter [UVM/RELNOTES] 
# ----------------------------------------------------------------
# UVM-1.2
# (C) 2007-2014 Mentor Graphics Corporation
# (C) 2007-2014 Cadence Design Systems, Inc.
# (C) 2006-2014 Synopsys, Inc.
# (C) 2011-2013 Cypress Semiconductor Corp.
# (C) 2013-2014 NVIDIA Corporation
# ----------------------------------------------------------------
# 
#   ***********       IMPORTANT RELEASE NOTES         ************
# 
#   You are using a version of the UVM library that has been compiled
#   with `UVM_NO_DEPRECATED undefined.
#   See http://www.eda.org/svdb/view.php?id=3313 for more details.
# 
#   You are using a version of the UVM library that has been compiled
#   with `UVM_OBJECT_DO_NOT_NEED_CONSTRUCTOR undefined.
#   See http://www.eda.org/svdb/view.php?id=3770 for more details.
# 
#       (Specify +UVM_NO_RELNOTES to turn off this notice)
# 
# UVM_INFO /home/venus/QuestaSim/uvm-1.2/src/base/uvm_root.svh(453) @ 0: reporter [NO_DPI_TSTNAME] UVM_NO_DPI defined--getting UVM_TESTNAME directly, without DPI
# UVM_INFO @ 0: reporter [RNTST] Running test full_10M_normal_uni_test...
# UVM_INFO ./../testcases/eth_base_test.sv(220) @ 0: uvm_test_top [build_phase] Entered...
# UVM_INFO ./../testcases/eth_base_test.sv(237) @ 0: uvm_test_top [build_phase] Exitting...
# UVM_INFO ./../tb/eth_environment.sv(24) @ 0: uvm_test_top.env [build_phase] Entered...
# UVM_INFO ./../tb/eth_environment.sv(52) @ 0: uvm_test_top.env [build_phase] Exitting...
# UVM_INFO ./../vip/ahb_vip/ahb_agent.sv(19) @ 0: uvm_test_top.env.ahb_agt [ahb_agent] Active agent is configued
# UVM_INFO ./../vip/phy_vip/phy_agent.sv(25) @ 0: uvm_test_top.env.phy_agt [phy_agent] Active agent is configured
# UVM_INFO ./../tb/eth_environment.sv(57) @ 0: uvm_test_top.env [connect_phase] Entered...
# UVM_INFO ./../tb/eth_environment.sv(70) @ 0: uvm_test_top.env [connect_phase] Exiting...
# UVM_INFO /home/venus/QuestaSim/uvm-1.2/src/base/uvm_root.svh(579) @ 0: reporter [UVMTOP] UVM testbench topology:
# ------------------------------------------------------------------------------
# Name                         Type                                  Size  Value
# ------------------------------------------------------------------------------
# uvm_test_top                 full_10M_normal_uni_test              -     @347 
#   env                        eth_environment                       -     @364 
#     ahb_agt                  ahb_agent                             -     @390 
#       driver                 ahb_driver                            -     @552 
#         rsp_port             uvm_analysis_port                     -     @571 
#         seq_item_port        uvm_seq_item_pull_port                -     @561 
#       monitor                ahb_monitor                           -     @718 
#         ahb_observe_port     uvm_analysis_port                     -     @731 
#       sequencer              ahb_sequencer                         -     @581 
#         rsp_export           uvm_analysis_export                   -     @590 
#         seq_item_export      uvm_seq_item_pull_imp                 -     @708 
#         arbitration_queue    array                                 0     -    
#         lock_queue           array                                 0     -    
#         num_last_reqs        integral                              32    'd1  
#         num_last_rsps        integral                              32    'd1  
#     ahb_predictor            uvm_reg_predictor #(ahb_transaction)  -     @509 
#       bus_in                 uvm_analysis_imp                      -     @518 
#       reg_ap                 uvm_analysis_port                     -     @528 
#     phy_agt                  phy_agent                             -     @399 
#       driver                 phy_driver                            -     @889 
#         rsp_port             uvm_analysis_port                     -     @908 
#         seq_item_port        uvm_seq_item_pull_port                -     @898 
#       monitor                phy_monitor                           -     @922 
#         phy_observe_port_rx  uvm_analysis_port                     -     @941 
#         phy_observe_port_tx  uvm_analysis_port                     -     @931 
#       sequencer              phy_sequencer                         -     @752 
#         rsp_export           uvm_analysis_export                   -     @761 
#         seq_item_export      uvm_seq_item_pull_imp                 -     @879 
#         arbitration_queue    array                                 0     -    
#         lock_queue           array                                 0     -    
#         num_last_reqs        integral                              32    'd1  
#         num_last_rsps        integral                              32    'd1  
#     sb                       eth_scoreboard                        -     @408 
#       ahb_export             uvm_analysis_imp_ahb                  -     @983 
#       phy_rx_export          uvm_analysis_imp_phy_rx               -     @973 
#       phy_tx_export          uvm_analysis_imp_phy_tx               -     @963 
# ------------------------------------------------------------------------------
# 
# UVM_INFO /home/venus/QuestaSim/uvm-1.2/src/base/uvm_traversal.svh(279) @ 0: reporter [UVM/COMP/NAMECHECK] This implementation of the component name checks requires DPI to be enabled
# UVM_INFO ./../testcases/eth_base_test.sv(137) @ 0: uvm_test_top [full_10M_normal_uni_test] burst_write_reg_range: start=0x0 end=0x10 beats=5 auto_fixed_burst=1
# UVM_INFO ./../vip/phy_vip/phy_driver.sv(62) @ 0: uvm_test_top.env.phy_agt.driver [run_phase] ENTERED...
# UVM_INFO ./../sequences/eth_ahb_burst_write_seq.sv(99) @ 105000: uvm_test_top.env.ahb_agt.sequencer@@burst_seq [eth_ahb_burst_write_seq] AHB burst write chunk: addr=0x0 beats=4 burst=HBURST_INCR4
# UVM_INFO ./../vip/ahb_vip/ahb_driver.sv(28) @ 105000: uvm_test_top.env.ahb_agt.driver [run_phase] Start WRITE transaction - ADRRESS: 0x0
# UVM_INFO ./../vip/ahb_vip/ahb_monitor.sv(135) @ 125000: uvm_test_top.env.ahb_agt.monitor [ahb_monitor] Send trans from monitor to scoreboard: 
# ---------------------------------------------------
# Name           Type             Size  Value        
# ---------------------------------------------------
# trans          ahb_transaction  -     @1079        
#   xact_type    xact_type_enum   1     WRITE        
#   xfer_size    hsize_e          3     HSIZE_WORD   
#   burst_type   hburst_e         3     HBURST_INCR4 
#   addr         integral         10    'h0          
#   data         integral         32    'h33445566   
#   write        integral         1     1            
#   wdata        integral         32    'h33445566   
#   rdata        integral         32    'h0          
#   size         hsize_e          3     HSIZE_WORD   
#   burst        hburst_e         3     HBURST_INCR4 
#   prot         integral         4     'h0          
#   lock         integral         1     'h0          
#   resp         hresp_e          1     HRESP_OKAY   
#   num_beats    integral         32    'd4          
#   idle_cycles  integral         32    'd0          
#   addr_q       da(integral)     0     -            
#   wdata_q      da(integral)     1     -            
#     [0]        integral         32    'h33445566   
#   rdata_q      da(integral)     0     -            
#   resp_q       array(hresp_e)   1     -            
#     [0]        hresp_e          1     HRESP_OKAY   
#   htrans       htrans_e         2     HTRANS_NONSEQ
#   trans        htrans_e         2     HTRANS_NONSEQ
#   beat_addr    da(integral)     1     -            
#     [0]        integral         10    'h0          
#   beat_wdata   da(integral)     1     -            
#     [0]        integral         32    'h33445566   
#   beat_rdata   da(integral)     0     -            
#   beat_resp    array(hresp_e)   1     -            
#     [0]        hresp_e          1     HRESP_OKAY   
#   beat_index   integral         32    'd0          
# ---------------------------------------------------
# 
# UVM_INFO ./../regmodel/eth_reg2ahb_adapter.sv(46) @ 125000: reporter [eth_reg2ahb_adapter] bus2reg: address = 0x0, data = 0x33445566, kind = UVM_WRITE, status = UVM_IS_OK
# UVM_INFO /home/venus/QuestaSim/uvm-1.2/src/reg/uvm_reg_predictor.svh(218) @ 125000: uvm_test_top.env.ahb_predictor [REG_PREDICT] Observed WRITE transaction to register regmodel.MAC_SA_LOW: value='h33445566 : updated value = 'h33445566
# UVM_INFO ./../vip/ahb_vip/ahb_monitor.sv(135) @ 135000: uvm_test_top.env.ahb_agt.monitor [ahb_monitor] Send trans from monitor to scoreboard: 
# --------------------------------------------------
# Name           Type             Size  Value       
# --------------------------------------------------
# trans          ahb_transaction  -     @1093       
#   xact_type    xact_type_enum   1     WRITE       
#   xfer_size    hsize_e          3     HSIZE_WORD  
#   burst_type   hburst_e         3     HBURST_INCR4
#   addr         integral         10    'h4         
#   data         integral         32    'h1122      
#   write        integral         1     1           
#   wdata        integral         32    'h1122      
#   rdata        integral         32    'h0         
#   size         hsize_e          3     HSIZE_WORD  
#   burst        hburst_e         3     HBURST_INCR4
#   prot         integral         4     'h0         
#   lock         integral         1     'h0         
#   resp         hresp_e          1     HRESP_OKAY  
#   num_beats    integral         32    'd4         
#   idle_cycles  integral         32    'd0         
#   addr_q       da(integral)     0     -           
#   wdata_q      da(integral)     1     -           
#     [0]        integral         32    'h1122      
#   rdata_q      da(integral)     0     -           
#   resp_q       array(hresp_e)   1     -           
#     [0]        hresp_e          1     HRESP_OKAY  
#   htrans       htrans_e         2     HTRANS_SEQ  
#   trans        htrans_e         2     HTRANS_SEQ  
#   beat_addr    da(integral)     1     -           
#     [0]        integral         10    'h4         
#   beat_wdata   da(integral)     1     -           
#     [0]        integral         32    'h1122      
#   beat_rdata   da(integral)     0     -           
#   beat_resp    array(hresp_e)   1     -           
#     [0]        hresp_e          1     HRESP_OKAY  
#   beat_index   integral         32    'd1         
# --------------------------------------------------
# 
# UVM_INFO ./../regmodel/eth_reg2ahb_adapter.sv(46) @ 135000: reporter [eth_reg2ahb_adapter] bus2reg: address = 0x4, data = 0x1122, kind = UVM_WRITE, status = UVM_IS_OK
# UVM_INFO /home/venus/QuestaSim/uvm-1.2/src/reg/uvm_reg_predictor.svh(218) @ 135000: uvm_test_top.env.ahb_predictor [REG_PREDICT] Observed WRITE transaction to register regmodel.MAC_SA_HIGH: value='h1122 : updated value = 'h1122
# UVM_INFO ./../vip/ahb_vip/ahb_monitor.sv(135) @ 145000: uvm_test_top.env.ahb_agt.monitor [ahb_monitor] Send trans from monitor to scoreboard: 
# --------------------------------------------------
# Name           Type             Size  Value       
# --------------------------------------------------
# trans          ahb_transaction  -     @1107       
#   xact_type    xact_type_enum   1     WRITE       
#   xfer_size    hsize_e          3     HSIZE_WORD  
#   burst_type   hburst_e         3     HBURST_INCR4
#   addr         integral         10    'h8         
#   data         integral         32    'h3         
#   write        integral         1     1           
#   wdata        integral         32    'h3         
#   rdata        integral         32    'h0         
#   size         hsize_e          3     HSIZE_WORD  
#   burst        hburst_e         3     HBURST_INCR4
#   prot         integral         4     'h0         
#   lock         integral         1     'h0         
#   resp         hresp_e          1     HRESP_OKAY  
#   num_beats    integral         32    'd4         
#   idle_cycles  integral         32    'd0         
#   addr_q       da(integral)     0     -           
#   wdata_q      da(integral)     1     -           
#     [0]        integral         32    'h3         
#   rdata_q      da(integral)     0     -           
#   resp_q       array(hresp_e)   1     -           
#     [0]        hresp_e          1     HRESP_OKAY  
#   htrans       htrans_e         2     HTRANS_SEQ  
#   trans        htrans_e         2     HTRANS_SEQ  
#   beat_addr    da(integral)     1     -           
#     [0]        integral         10    'h8         
#   beat_wdata   da(integral)     1     -           
#     [0]        integral         32    'h3         
#   beat_rdata   da(integral)     0     -           
#   beat_resp    array(hresp_e)   1     -           
#     [0]        hresp_e          1     HRESP_OKAY  
#   beat_index   integral         32    'd2         
# --------------------------------------------------
# 
# UVM_INFO ./../regmodel/eth_reg2ahb_adapter.sv(46) @ 145000: reporter [eth_reg2ahb_adapter] bus2reg: address = 0x8, data = 0x3, kind = UVM_WRITE, status = UVM_IS_OK
# UVM_INFO /home/venus/QuestaSim/uvm-1.2/src/reg/uvm_reg_predictor.svh(218) @ 145000: uvm_test_top.env.ahb_predictor [REG_PREDICT] Observed WRITE transaction to register regmodel.PAUSE_CTRL: value='h3 : updated value = 'h3
# UVM_INFO ./../vip/ahb_vip/ahb_driver.sv(47) @ 155000: uvm_test_top.env.ahb_agt.driver [run_phase] Completed WRITE transaction at addr 0x0 and data: 0x33445566
# UVM_INFO ./../vip/ahb_vip/ahb_monitor.sv(135) @ 155000: uvm_test_top.env.ahb_agt.monitor [ahb_monitor] Send trans from monitor to scoreboard: 
# --------------------------------------------------
# Name           Type             Size  Value       
# --------------------------------------------------
# trans          ahb_transaction  -     @1127       
#   xact_type    xact_type_enum   1     WRITE       
#   xfer_size    hsize_e          3     HSIZE_WORD  
#   burst_type   hburst_e         3     HBURST_INCR4
#   addr         integral         10    'hc         
#   data         integral         32    'h4         
#   write        integral         1     1           
#   wdata        integral         32    'h4         
#   rdata        integral         32    'h0         
#   size         hsize_e          3     HSIZE_WORD  
#   burst        hburst_e         3     HBURST_INCR4
#   prot         integral         4     'h0         
#   lock         integral         1     'h0         
#   resp         hresp_e          1     HRESP_OKAY  
#   num_beats    integral         32    'd4         
#   idle_cycles  integral         32    'd0         
#   addr_q       da(integral)     0     -           
#   wdata_q      da(integral)     1     -           
#     [0]        integral         32    'h4         
#   rdata_q      da(integral)     0     -           
#   resp_q       array(hresp_e)   1     -           
#     [0]        hresp_e          1     HRESP_OKAY  
#   htrans       htrans_e         2     HTRANS_SEQ  
#   trans        htrans_e         2     HTRANS_SEQ  
#   beat_addr    da(integral)     1     -           
#     [0]        integral         10    'hc         
#   beat_wdata   da(integral)     1     -           
#     [0]        integral         32    'h4         
#   beat_rdata   da(integral)     0     -           
#   beat_resp    array(hresp_e)   1     -           
#     [0]        hresp_e          1     HRESP_OKAY  
#   beat_index   integral         32    'd3         
# --------------------------------------------------
# 
# UVM_INFO ./../regmodel/eth_reg2ahb_adapter.sv(46) @ 155000: reporter [eth_reg2ahb_adapter] bus2reg: address = 0xc, data = 0x4, kind = UVM_WRITE, status = UVM_IS_OK
# UVM_INFO /home/venus/QuestaSim/uvm-1.2/src/reg/uvm_reg_predictor.svh(218) @ 155000: uvm_test_top.env.ahb_predictor [REG_PREDICT] Observed WRITE transaction to register regmodel.IER: value='h4 : updated value = 'h4
# UVM_INFO ./../sequences/eth_ahb_burst_write_seq.sv(99) @ 155000: uvm_test_top.env.ahb_agt.sequencer@@burst_seq [eth_ahb_burst_write_seq] AHB burst write chunk: addr=0x10 beats=1 burst=HBURST_SINGLE
# UVM_INFO ./../vip/ahb_vip/ahb_driver.sv(28) @ 155000: uvm_test_top.env.ahb_agt.driver [run_phase] Start WRITE transaction - ADRRESS: 0x10
# UVM_INFO ./../vip/ahb_vip/ahb_monitor.sv(135) @ 175000: uvm_test_top.env.ahb_agt.monitor [ahb_monitor] Send trans from monitor to scoreboard: 
# ---------------------------------------------------
# Name           Type             Size  Value        
# ---------------------------------------------------
# trans          ahb_transaction  -     @1150        
#   xact_type    xact_type_enum   1     WRITE        
#   xfer_size    hsize_e          3     HSIZE_WORD   
#   burst_type   hburst_e         3     HBURST_SINGLE
#   addr         integral         10    'h10         
#   data         integral         32    'h23         
#   write        integral         1     1            
#   wdata        integral         32    'h23         
#   rdata        integral         32    'h0          
#   size         hsize_e          3     HSIZE_WORD   
#   burst        hburst_e         3     HBURST_SINGLE
#   prot         integral         4     'h0          
#   lock         integral         1     'h0          
#   resp         hresp_e          1     HRESP_OKAY   
#   num_beats    integral         32    'd1          
#   idle_cycles  integral         32    'd0          
#   addr_q       da(integral)     0     -            
#   wdata_q      da(integral)     1     -            
#     [0]        integral         32    'h23         
#   rdata_q      da(integral)     0     -            
#   resp_q       array(hresp_e)   1     -            
#     [0]        hresp_e          1     HRESP_OKAY   
#   htrans       htrans_e         2     HTRANS_NONSEQ
#   trans        htrans_e         2     HTRANS_NONSEQ
#   beat_addr    da(integral)     1     -            
#     [0]        integral         10    'h10         
#   beat_wdata   da(integral)     1     -            
#     [0]        integral         32    'h23         
#   beat_rdata   da(integral)     0     -            
#   beat_resp    array(hresp_e)   1     -            
#     [0]        hresp_e          1     HRESP_OKAY   
#   beat_index   integral         32    'd0          
# ---------------------------------------------------
# 
# UVM_INFO ./../regmodel/eth_reg2ahb_adapter.sv(46) @ 175000: reporter [eth_reg2ahb_adapter] bus2reg: address = 0x10, data = 0x23, kind = UVM_WRITE, status = UVM_IS_OK
# UVM_INFO /home/venus/QuestaSim/uvm-1.2/src/reg/uvm_reg_predictor.svh(218) @ 175000: uvm_test_top.env.ahb_predictor [REG_PREDICT] Observed WRITE transaction to register regmodel.MAC_CTRL: value='h23 : updated value = 'h23
# UVM_INFO ./../vip/ahb_vip/ahb_driver.sv(47) @ 175000: uvm_test_top.env.ahb_agt.driver [run_phase] Completed WRITE transaction at addr 0x10 and data: 0x23
# UVM_INFO ./../testcases/eth_base_test.sv(149) @ 175000: uvm_test_top [full_10M_normal_uni_test] burst_write_reg_range: completed
# UVM_INFO ./../testcases/eth_base_test.sv(137) @ 175000: uvm_test_top [full_10M_normal_uni_test] burst_write_reg_range: start=0x20 end=0x24 beats=2 auto_fixed_burst=1
# UVM_INFO ./../sequences/eth_ahb_burst_write_seq.sv(99) @ 175000: uvm_test_top.env.ahb_agt.sequencer@@burst_seq [eth_ahb_burst_write_seq] AHB burst write chunk: addr=0x20 beats=2 burst=HBURST_INCR
# UVM_INFO ./../vip/ahb_vip/ahb_driver.sv(28) @ 175000: uvm_test_top.env.ahb_agt.driver [run_phase] Start WRITE transaction - ADRRESS: 0x20
# UVM_INFO ./../vip/ahb_vip/ahb_monitor.sv(135) @ 195000: uvm_test_top.env.ahb_agt.monitor [ahb_monitor] Send trans from monitor to scoreboard: 
# ---------------------------------------------------
# Name           Type             Size  Value        
# ---------------------------------------------------
# trans          ahb_transaction  -     @1190        
#   xact_type    xact_type_enum   1     WRITE        
#   xfer_size    hsize_e          3     HSIZE_WORD   
#   burst_type   hburst_e         3     HBURST_INCR  
#   addr         integral         10    'h20         
#   data         integral         32    'h0          
#   write        integral         1     1            
#   wdata        integral         32    'h0          
#   rdata        integral         32    'h0          
#   size         hsize_e          3     HSIZE_WORD   
#   burst        hburst_e         3     HBURST_INCR  
#   prot         integral         4     'h0          
#   lock         integral         1     'h0          
#   resp         hresp_e          1     HRESP_OKAY   
#   num_beats    integral         32    'd0          
#   idle_cycles  integral         32    'd0          
#   addr_q       da(integral)     0     -            
#   wdata_q      da(integral)     1     -            
#     [0]        integral         32    'h0          
#   rdata_q      da(integral)     0     -            
#   resp_q       array(hresp_e)   1     -            
#     [0]        hresp_e          1     HRESP_OKAY   
#   htrans       htrans_e         2     HTRANS_NONSEQ
#   trans        htrans_e         2     HTRANS_NONSEQ
#   beat_addr    da(integral)     1     -            
#     [0]        integral         10    'h20         
#   beat_wdata   da(integral)     1     -            
#     [0]        integral         32    'h0          
#   beat_rdata   da(integral)     0     -            
#   beat_resp    array(hresp_e)   1     -            
#     [0]        hresp_e          1     HRESP_OKAY   
#   beat_index   integral         32    'd0          
# ---------------------------------------------------
# 
# UVM_INFO ./../regmodel/eth_reg2ahb_adapter.sv(46) @ 195000: reporter [eth_reg2ahb_adapter] bus2reg: address = 0x20, data = 0x0, kind = UVM_WRITE, status = UVM_IS_OK
# UVM_INFO /home/venus/QuestaSim/uvm-1.2/src/reg/uvm_reg_predictor.svh(218) @ 195000: uvm_test_top.env.ahb_predictor [REG_PREDICT] Observed WRITE transaction to register regmodel.HASH_0: value='h0 : updated value = 'h0
# UVM_INFO ./../vip/ahb_vip/ahb_driver.sv(47) @ 205000: uvm_test_top.env.ahb_agt.driver [run_phase] Completed WRITE transaction at addr 0x20 and data: 0x0
# UVM_INFO ./../vip/ahb_vip/ahb_monitor.sv(135) @ 205000: uvm_test_top.env.ahb_agt.monitor [ahb_monitor] Send trans from monitor to scoreboard: 
# -------------------------------------------------
# Name           Type             Size  Value      
# -------------------------------------------------
# trans          ahb_transaction  -     @1210      
#   xact_type    xact_type_enum   1     WRITE      
#   xfer_size    hsize_e          3     HSIZE_WORD 
#   burst_type   hburst_e         3     HBURST_INCR
#   addr         integral         10    'h24       
#   data         integral         32    'h0        
#   write        integral         1     1          
#   wdata        integral         32    'h0        
#   rdata        integral         32    'h0        
#   size         hsize_e          3     HSIZE_WORD 
#   burst        hburst_e         3     HBURST_INCR
#   prot         integral         4     'h0        
#   lock         integral         1     'h0        
#   resp         hresp_e          1     HRESP_OKAY 
#   num_beats    integral         32    'd0        
#   idle_cycles  integral         32    'd0        
#   addr_q       da(integral)     0     -          
#   wdata_q      da(integral)     1     -          
#     [0]        integral         32    'h0        
#   rdata_q      da(integral)     0     -          
#   resp_q       array(hresp_e)   1     -          
#     [0]        hresp_e          1     HRESP_OKAY 
#   htrans       htrans_e         2     HTRANS_SEQ 
#   trans        htrans_e         2     HTRANS_SEQ 
#   beat_addr    da(integral)     1     -          
#     [0]        integral         10    'h24       
#   beat_wdata   da(integral)     1     -          
#     [0]        integral         32    'h0        
#   beat_rdata   da(integral)     0     -          
#   beat_resp    array(hresp_e)   1     -          
#     [0]        hresp_e          1     HRESP_OKAY 
#   beat_index   integral         32    'd1        
# -------------------------------------------------
# 
# UVM_INFO ./../regmodel/eth_reg2ahb_adapter.sv(46) @ 205000: reporter [eth_reg2ahb_adapter] bus2reg: address = 0x24, data = 0x0, kind = UVM_WRITE, status = UVM_IS_OK
# UVM_INFO /home/venus/QuestaSim/uvm-1.2/src/reg/uvm_reg_predictor.svh(218) @ 205000: uvm_test_top.env.ahb_predictor [REG_PREDICT] Observed WRITE transaction to register regmodel.HASH_1: value='h0 : updated value = 'h0
# UVM_INFO ./../testcases/eth_base_test.sv(149) @ 205000: uvm_test_top [full_10M_normal_uni_test] burst_write_reg_range: completed
# UVM_INFO ./../testcases/eth_base_test.sv(137) @ 205000: uvm_test_top [full_10M_normal_uni_test] burst_write_reg_range: start=0x40 end=0x48 beats=3 auto_fixed_burst=1
# UVM_INFO ./../sequences/eth_ahb_burst_write_seq.sv(99) @ 205000: uvm_test_top.env.ahb_agt.sequencer@@burst_seq [eth_ahb_burst_write_seq] AHB burst write chunk: addr=0x40 beats=3 burst=HBURST_INCR
# UVM_INFO ./../vip/ahb_vip/ahb_driver.sv(28) @ 205000: uvm_test_top.env.ahb_agt.driver [run_phase] Start WRITE transaction - ADRRESS: 0x40
# UVM_INFO ./../vip/ahb_vip/ahb_monitor.sv(135) @ 225000: uvm_test_top.env.ahb_agt.monitor [ahb_monitor] Send trans from monitor to scoreboard: 
# ---------------------------------------------------
# Name           Type             Size  Value        
# ---------------------------------------------------
# trans          ahb_transaction  -     @1244        
#   xact_type    xact_type_enum   1     WRITE        
#   xfer_size    hsize_e          3     HSIZE_WORD   
#   burst_type   hburst_e         3     HBURST_INCR  
#   addr         integral         10    'h40         
#   data         integral         32    'hccddeeff   
#   write        integral         1     1            
#   wdata        integral         32    'hccddeeff   
#   rdata        integral         32    'h0          
#   size         hsize_e          3     HSIZE_WORD   
#   burst        hburst_e         3     HBURST_INCR  
#   prot         integral         4     'h0          
#   lock         integral         1     'h0          
#   resp         hresp_e          1     HRESP_OKAY   
#   num_beats    integral         32    'd0          
#   idle_cycles  integral         32    'd0          
#   addr_q       da(integral)     0     -            
#   wdata_q      da(integral)     1     -            
#     [0]        integral         32    'hccddeeff   
#   rdata_q      da(integral)     0     -            
#   resp_q       array(hresp_e)   1     -            
#     [0]        hresp_e          1     HRESP_OKAY   
#   htrans       htrans_e         2     HTRANS_NONSEQ
#   trans        htrans_e         2     HTRANS_NONSEQ
#   beat_addr    da(integral)     1     -            
#     [0]        integral         10    'h40         
#   beat_wdata   da(integral)     1     -            
#     [0]        integral         32    'hccddeeff   
#   beat_rdata   da(integral)     0     -            
#   beat_resp    array(hresp_e)   1     -            
#     [0]        hresp_e          1     HRESP_OKAY   
#   beat_index   integral         32    'd0          
# ---------------------------------------------------
# 
# UVM_INFO ./../regmodel/eth_reg2ahb_adapter.sv(46) @ 225000: reporter [eth_reg2ahb_adapter] bus2reg: address = 0x40, data = 0xccddeeff, kind = UVM_WRITE, status = UVM_IS_OK
# UVM_INFO /home/venus/QuestaSim/uvm-1.2/src/reg/uvm_reg_predictor.svh(218) @ 225000: uvm_test_top.env.ahb_predictor [REG_PREDICT] Observed WRITE transaction to register regmodel.TX_DA_LOW: value='hccddeeff : updated value = 'hccddeeff
# UVM_INFO ./../vip/ahb_vip/ahb_monitor.sv(135) @ 235000: uvm_test_top.env.ahb_agt.monitor [ahb_monitor] Send trans from monitor to scoreboard: 
# -------------------------------------------------
# Name           Type             Size  Value      
# -------------------------------------------------
# trans          ahb_transaction  -     @1258      
#   xact_type    xact_type_enum   1     WRITE      
#   xfer_size    hsize_e          3     HSIZE_WORD 
#   burst_type   hburst_e         3     HBURST_INCR
#   addr         integral         10    'h44       
#   data         integral         32    'haabb     
#   write        integral         1     1          
#   wdata        integral         32    'haabb     
#   rdata        integral         32    'h0        
#   size         hsize_e          3     HSIZE_WORD 
#   burst        hburst_e         3     HBURST_INCR
#   prot         integral         4     'h0        
#   lock         integral         1     'h0        
#   resp         hresp_e          1     HRESP_OKAY 
#   num_beats    integral         32    'd0        
#   idle_cycles  integral         32    'd0        
#   addr_q       da(integral)     0     -          
#   wdata_q      da(integral)     1     -          
#     [0]        integral         32    'haabb     
#   rdata_q      da(integral)     0     -          
#   resp_q       array(hresp_e)   1     -          
#     [0]        hresp_e          1     HRESP_OKAY 
#   htrans       htrans_e         2     HTRANS_SEQ 
#   trans        htrans_e         2     HTRANS_SEQ 
#   beat_addr    da(integral)     1     -          
#     [0]        integral         10    'h44       
#   beat_wdata   da(integral)     1     -          
#     [0]        integral         32    'haabb     
#   beat_rdata   da(integral)     0     -          
#   beat_resp    array(hresp_e)   1     -          
#     [0]        hresp_e          1     HRESP_OKAY 
#   beat_index   integral         32    'd1        
# -------------------------------------------------
# 
# UVM_INFO ./../regmodel/eth_reg2ahb_adapter.sv(46) @ 235000: reporter [eth_reg2ahb_adapter] bus2reg: address = 0x44, data = 0xaabb, kind = UVM_WRITE, status = UVM_IS_OK
# UVM_INFO /home/venus/QuestaSim/uvm-1.2/src/reg/uvm_reg_predictor.svh(218) @ 235000: uvm_test_top.env.ahb_predictor [REG_PREDICT] Observed WRITE transaction to register regmodel.TX_DA_HIGH: value='haabb : updated value = 'haabb
# UVM_INFO ./../vip/ahb_vip/ahb_monitor.sv(135) @ 245000: uvm_test_top.env.ahb_agt.monitor [ahb_monitor] Send trans from monitor to scoreboard: 
# -------------------------------------------------
# Name           Type             Size  Value      
# -------------------------------------------------
# trans          ahb_transaction  -     @1272      
#   xact_type    xact_type_enum   1     WRITE      
#   xfer_size    hsize_e          3     HSIZE_WORD 
#   burst_type   hburst_e         3     HBURST_INCR
#   addr         integral         10    'h48       
#   data         integral         32    'h23f      
#   write        integral         1     1          
#   wdata        integral         32    'h23f      
#   rdata        integral         32    'h0        
#   size         hsize_e          3     HSIZE_WORD 
#   burst        hburst_e         3     HBURST_INCR
#   prot         integral         4     'h0        
#   lock         integral         1     'h0        
#   resp         hresp_e          1     HRESP_OKAY 
#   num_beats    integral         32    'd0        
#   idle_cycles  integral         32    'd0        
#   addr_q       da(integral)     0     -          
#   wdata_q      da(integral)     1     -          
#     [0]        integral         32    'h23f      
#   rdata_q      da(integral)     0     -          
#   resp_q       array(hresp_e)   1     -          
#     [0]        hresp_e          1     HRESP_OKAY 
#   htrans       htrans_e         2     HTRANS_SEQ 
#   trans        htrans_e         2     HTRANS_SEQ 
#   beat_addr    da(integral)     1     -          
#     [0]        integral         10    'h48       
#   beat_wdata   da(integral)     1     -          
#     [0]        integral         32    'h23f      
#   beat_rdata   da(integral)     0     -          
#   beat_resp    array(hresp_e)   1     -          
#     [0]        hresp_e          1     HRESP_OKAY 
#   beat_index   integral         32    'd2        
# -------------------------------------------------
# 
# UVM_INFO ./../regmodel/eth_reg2ahb_adapter.sv(46) @ 245000: reporter [eth_reg2ahb_adapter] bus2reg: address = 0x48, data = 0x23f, kind = UVM_WRITE, status = UVM_IS_OK
# UVM_INFO /home/venus/QuestaSim/uvm-1.2/src/reg/uvm_reg_predictor.svh(218) @ 245000: uvm_test_top.env.ahb_predictor [REG_PREDICT] Observed WRITE transaction to register regmodel.TX_LEN: value='h23f : updated value = 'h23f
# UVM_INFO ./../vip/ahb_vip/ahb_driver.sv(47) @ 245000: uvm_test_top.env.ahb_agt.driver [run_phase] Completed WRITE transaction at addr 0x40 and data: 0xccddeeff
# UVM_INFO ./../testcases/eth_base_test.sv(149) @ 245000: uvm_test_top [full_10M_normal_uni_test] burst_write_reg_range: completed
# UVM_INFO ./../testcases/eth_base_test.sv(182) @ 245000: uvm_test_top [full_10M_normal_uni_test] random_payload: byte_len=575 num_words=144
#   payload[0] = 32'h10f3c83b
#   payload[1] = 32'hd891ebe0
#   payload[2] = 32'h4ef08df5
#   payload[3] = 32'hd1aadc79
#   payload[4] = 32'h44b3e82d
#   payload[5] = 32'hfd3c6b24
#   payload[6] = 32'h90faeec8
#   payload[7] = 32'h188e41a9
#   payload[8] = 32'hd40fc93c
#   payload[9] = 32'h9c9159d2
#   payload[10] = 32'h538cca70
#   payload[11] = 32'h974473a1
#   payload[12] = 32'had26ece3
#   payload[13] = 32'h25608ee9
#   payload[14] = 32'h4bd977d6
#   payload[15] = 32'h91c29ab0
#   payload[16] = 32'h572ecedb
#   payload[17] = 32'hcdc5ea9c
#   payload[18] = 32'h9f01583f
#   payload[19] = 32'ha8320835
#   payload[20] = 32'h3af8aeb9
#   payload[21] = 32'h2dda3beb
#   payload[22] = 32'hc87b8362
#   payload[23] = 32'h526d5118
#   payload[24] = 32'hcfce9fe5
#   payload[25] = 32'hf4a58171
#   payload[26] = 32'h531a172f
#   payload[27] = 32'h731b3553
#   payload[28] = 32'had5426f2
#   payload[29] = 32'h21fc73c1
#   payload[30] = 32'h3cace310
#   payload[31] = 32'h0a7ed894
#   payload[32] = 32'h3323c795
#   payload[33] = 32'h71f14124
#   payload[34] = 32'hcfef2fe2
#   payload[35] = 32'hf1755a30
#   payload[36] = 32'h70958882
#   payload[37] = 32'h63a1d095
#   payload[38] = 32'hf5105944
#   payload[39] = 32'hef6eea4e
#   payload[40] = 32'h36a19039
#   payload[41] = 32'hb77741cd
#   payload[42] = 32'hefa2c681
#   payload[43] = 32'h741657c2
#   payload[44] = 32'h82f56dd2
#   payload[45] = 32'hacae1dd2
#   payload[46] = 32'h0bec1d4b
#   payload[47] = 32'h7cd13003
#   payload[48] = 32'h05ad56de
#   payload[49] = 32'hff15227d
#   payload[50] = 32'h401f0d8b
#   payload[51] = 32'hc89aedf8
#   payload[52] = 32'h4367bfd9
#   payload[53] = 32'h06958872
#   payload[54] = 32'h6289b03c
#   payload[55] = 32'haae0233a
#   payload[56] = 32'hc45f9bb0
#   payload[57] = 32'hf9c967b0
#   payload[58] = 32'ha6f360f1
#   payload[59] = 32'h0f00559d
#   payload[60] = 32'hf42dde61
#   payload[61] = 32'hcc95e798
#   payload[62] = 32'h4bbf8607
#   payload[63] = 32'hd54ea288
#   payload[64] = 32'h1acfcc0d
#   payload[65] = 32'h1f30a0d6
#   payload[66] = 32'h8514a195
#   payload[67] = 32'ha4edf484
#   payload[68] = 32'h23625f4d
#   payload[69] = 32'h02837cf8
#   payload[70] = 32'hd8547bdc
#   payload[71] = 32'h99d8b2b9
#   payload[72] = 32'hce48288f
#   payload[73] = 32'h8946f2c4
#   payload[74] = 32'ha855574c
#   payload[75] = 32'h8a37620c
#   payload[76] = 32'h299128d7
#   payload[77] = 32'h2c3804d4
#   payload[78] = 32'h339cd9b4
#   payload[79] = 32'ha30700be
#   payload[80] = 32'h186889d2
#   payload[81] = 32'ha605efe6
#   payload[82] = 32'h0a15c6a2
#   payload[83] = 32'ha4106c50
#   payload[84] = 32'h86a4328b
#   payload[85] = 32'h7d03235f
#   payload[86] = 32'h9afcd6d3
#   payload[87] = 32'hf3073fdb
#   payload[88] = 32'hb09732dd
#   payload[89] = 32'h59116a46
#   payload[90] = 32'h184ea2ea
#   payload[91] = 32'h212da04a
#   payload[92] = 32'heb132afe
#   payload[93] = 32'hb5810ba6
#   payload[94] = 32'hdb798dbb
#   payload[95] = 32'hde87ac38
#   payload[96] = 32'hec20d68d
#   payload[97] = 32'h7a509a4f
#   payload[98] = 32'h0b5ca38b
#   payload[99] = 32'h578052ec
#   payload[100] = 32'h77d4d8e1
#   payload[101] = 32'h335c929a
#   payload[102] = 32'h9d059461
#   payload[103] = 32'haaa91bca
#   payload[104] = 32'ha772dba7
#   payload[105] = 32'h201a8132
#   payload[106] = 32'h92369f40
#   payload[107] = 32'hf22ceabf
#   payload[108] = 32'hcc744dee
#   payload[109] = 32'hd46b9cc7
#   payload[110] = 32'h68281e85
#   payload[111] = 32'h3224cd57
#   payload[112] = 32'h820c40cf
#   payload[113] = 32'ha196f42c
#   payload[114] = 32'hc1e4b45c
#   payload[115] = 32'h4fa554a6
#   payload[116] = 32'hd90dae11
#   payload[117] = 32'hd69315f2
#   payload[118] = 32'h26850410
#   payload[119] = 32'h7fe30db7
#   payload[120] = 32'hab0f9af5
#   payload[121] = 32'he1ece840
#   payload[122] = 32'h42f0ed4b
#   payload[123] = 32'h3315e717
#   payload[124] = 32'hd20f4590
#   payload[125] = 32'hf1900460
#   payload[126] = 32'hb3538b8f
#   payload[127] = 32'h4fbe89a6
#   payload[128] = 32'h794d97d2
#   payload[129] = 32'hc8299da6
#   payload[130] = 32'h8356d1df
#   payload[131] = 32'h187c5d5f
#   payload[132] = 32'ha59550c4
#   payload[133] = 32'h0f9ecee9
#   payload[134] = 32'h5e19089a
#   payload[135] = 32'h832f95e0
#   payload[136] = 32'h91dabbba
#   payload[137] = 32'he844e1b5
#   payload[138] = 32'h5eed5299
#   payload[139] = 32'h6a0df414
#   payload[140] = 32'hee52e178
#   payload[141] = 32'hacdb80ab
#   payload[142] = 32'h8e4abebb
#   payload[143] = 32'h00cc6790
# UVM_INFO ./../regmodel/eth_reg2ahb_adapter.sv(31) @ 245000: reporter [eth_reg2ahb_adapter] reg2bus: address = 0x4c, data = 0x10f3c83b, kind = WRITE
# UVM_INFO ./../vip/ahb_vip/ahb_driver.sv(28) @ 245000: uvm_test_top.env.ahb_agt.driver [run_phase] Start WRITE transaction - ADRRESS: 0x4c
# UVM_INFO ./../vip/ahb_vip/ahb_monitor.sv(135) @ 265000: uvm_test_top.env.ahb_agt.monitor [ahb_monitor] Send trans from monitor to scoreboard: 
# ---------------------------------------------------
# Name           Type             Size  Value        
# ---------------------------------------------------
# trans          ahb_transaction  -     @1316        
#   xact_type    xact_type_enum   1     WRITE        
#   xfer_size    hsize_e          3     HSIZE_WORD   
#   burst_type   hburst_e         3     HBURST_SINGLE
#   addr         integral         10    'h4c         
#   data         integral         32    'h10f3c83b   
#   write        integral         1     1            
#   wdata        integral         32    'h10f3c83b   
#   rdata        integral         32    'h0          
#   size         hsize_e          3     HSIZE_WORD   
#   burst        hburst_e         3     HBURST_SINGLE
#   prot         integral         4     'h0          
#   lock         integral         1     'h0          
#   resp         hresp_e          1     HRESP_OKAY   
#   num_beats    integral         32    'd1          
#   idle_cycles  integral         32    'd0          
#   addr_q       da(integral)     0     -            
#   wdata_q      da(integral)     1     -            
#     [0]        integral         32    'h10f3c83b   
#   rdata_q      da(integral)     0     -            
#   resp_q       array(hresp_e)   1     -            
#     [0]        hresp_e          1     HRESP_OKAY   
#   htrans       htrans_e         2     HTRANS_NONSEQ
#   trans        htrans_e         2     HTRANS_NONSEQ
#   beat_addr    da(integral)     1     -            
#     [0]        integral         10    'h4c         
#   beat_wdata   da(integral)     1     -            
#     [0]        integral         32    'h10f3c83b   
#   beat_rdata   da(integral)     0     -            
#   beat_resp    array(hresp_e)   1     -            
#     [0]        hresp_e          1     HRESP_OKAY   
#   beat_index   integral         32    'd0          
# ---------------------------------------------------
# 
# UVM_INFO ./../regmodel/eth_reg2ahb_adapter.sv(46) @ 265000: reporter [eth_reg2ahb_adapter] bus2reg: address = 0x4c, data = 0x10f3c83b, kind = UVM_WRITE, status = UVM_IS_OK
# UVM_INFO /home/venus/QuestaSim/uvm-1.2/src/reg/uvm_reg_predictor.svh(218) @ 265000: uvm_test_top.env.ahb_predictor [REG_PREDICT] Observed WRITE transaction to register regmodel.TX_DATA: value='h10f3c83b : updated value = 'h10f3c83b
# UVM_INFO ./../vip/ahb_vip/ahb_driver.sv(47) @ 265000: uvm_test_top.env.ahb_agt.driver [run_phase] Completed WRITE transaction at addr 0x4c and data: 0x10f3c83b
# UVM_INFO ./../regmodel/eth_reg2ahb_adapter.sv(46) @ 265000: reporter [eth_reg2ahb_adapter] bus2reg: address = 0x4c, data = 0x10f3c83b, kind = UVM_WRITE, status = UVM_IS_OK
# UVM_INFO @ 265000: reporter [RegModel] Wrote register via map regmodel.ahb_map: regmodel.TX_DATA=0x10f3c83b
# UVM_INFO ./../regmodel/eth_reg2ahb_adapter.sv(31) @ 265000: reporter [eth_reg2ahb_adapter] reg2bus: address = 0x4c, data = 0xd891ebe0, kind = WRITE
# UVM_INFO ./../vip/ahb_vip/ahb_driver.sv(28) @ 265000: uvm_test_top.env.ahb_agt.driver [run_phase] Start WRITE transaction - ADRRESS: 0x4c
# UVM_INFO ./../vip/ahb_vip/ahb_monitor.sv(135) @ 285000: uvm_test_top.env.ahb_agt.monitor [ahb_monitor] Send trans from monitor to scoreboard: 
# ---------------------------------------------------
# Name           Type             Size  Value        
# ---------------------------------------------------
# trans          ahb_transaction  -     @1358        
#   xact_type    xact_type_enum   1     WRITE        
#   xfer_size    hsize_e          3     HSIZE_WORD   
#   burst_type   hburst_e         3     HBURST_SINGLE
#   addr         integral         10    'h4c         
#   data         integral         32    'hd891ebe0   
#   write        integral         1     1            
#   wdata        integral         32    'hd891ebe0   
#   rdata        integral         32    'h0          
#   size         hsize_e          3     HSIZE_WORD   
#   burst        hburst_e         3     HBURST_SINGLE
#   prot         integral         4     'h0          
#   lock         integral         1     'h0          
#   resp         hresp_e          1     HRESP_OKAY   
#   num_beats    integral         32    'd1          
#   idle_cycles  integral         32    'd0          
#   addr_q       da(integral)     0     -            
#   wdata_q      da(integral)     1     -            
#     [0]        integral         32    'hd891ebe0   
#   rdata_q      da(integral)     0     -            
#   resp_q       array(hresp_e)   1     -            
#     [0]        hresp_e          1     HRESP_OKAY   
#   htrans       htrans_e         2     HTRANS_NONSEQ
#   trans        htrans_e         2     HTRANS_NONSEQ
#   beat_addr    da(integral)     1     -            
#     [0]        integral         10    'h4c         
#   beat_wdata   da(integral)     1     -            
#     [0]        integral         32    'hd891ebe0   
#   beat_rdata   da(integral)     0     -            
#   beat_resp    array(hresp_e)   1     -            
#     [0]        hresp_e          1     HRESP_OKAY   
#   beat_index   integral         32    'd0          
# ---------------------------------------------------
# 
# UVM_INFO ./../regmodel/eth_reg2ahb_adapter.sv(46) @ 285000: reporter [eth_reg2ahb_adapter] bus2reg: address = 0x4c, data = 0xd891ebe0, kind = UVM_WRITE, status = UVM_IS_OK
# UVM_INFO /home/venus/QuestaSim/uvm-1.2/src/reg/uvm_reg_predictor.svh(218) @ 285000: uvm_test_top.env.ahb_predictor [REG_PREDICT] Observed WRITE transaction to register regmodel.TX_DATA: value='hd891ebe0 : updated value = 'hd891ebe0
# UVM_INFO ./../vip/ahb_vip/ahb_driver.sv(47) @ 285000: uvm_test_top.env.ahb_agt.driver [run_phase] Completed WRITE transaction at addr 0x4c and data: 0xd891ebe0
# UVM_INFO ./../regmodel/eth_reg2ahb_adapter.sv(46) @ 285000: reporter [eth_reg2ahb_adapter] bus2reg: address = 0x4c, data = 0xd891ebe0, kind = UVM_WRITE, status = UVM_IS_OK
# UVM_INFO @ 285000: reporter [RegModel] Wrote register via map regmodel.ahb_map: regmodel.TX_DATA=0xd891ebe0
# UVM_INFO ./../regmodel/eth_reg2ahb_adapter.sv(31) @ 285000: reporter [eth_reg2ahb_adapter] reg2bus: address = 0x4c, data = 0x4ef08df5, kind = WRITE
# UVM_INFO ./../vip/ahb_vip/ahb_driver.sv(28) @ 285000: uvm_test_top.env.ahb_agt.driver [run_phase] Start WRITE transaction - ADRRESS: 0x4c
# UVM_INFO ./../vip/ahb_vip/ahb_monitor.sv(135) @ 305000: uvm_test_top.env.ahb_agt.monitor [ahb_monitor] Send trans from monitor to scoreboard: 
# ---------------------------------------------------
# Name           Type             Size  Value        
# ---------------------------------------------------
# trans          ahb_transaction  -     @1400        
#   xact_type    xact_type_enum   1     WRITE        
#   xfer_size    hsize_e          3     HSIZE_WORD   
#   burst_type   hburst_e         3     HBURST_SINGLE
#   addr         integral         10    'h4c         
#   data         integral         32    'h4ef08df5   
#   write        integral         1     1            
#   wdata        integral         32    'h4ef08df5   
#   rdata        integral         32    'h0          
#   size         hsize_e          3     HSIZE_WORD   
#   burst        hburst_e         3     HBURST_SINGLE
#   prot         integral         4     'h0          
#   lock         integral         1     'h0          
#   resp         hresp_e          1     HRESP_OKAY   
#   num_beats    integral         32    'd1          
#   idle_cycles  integral         32    'd0          
#   addr_q       da(integral)     0     -            
#   wdata_q      da(integral)     1     -            
#     [0]        integral         32    'h4ef08df5   
#   rdata_q      da(integral)     0     -            
#   resp_q       array(hresp_e)   1     -            
#     [0]        hresp_e          1     HRESP_OKAY   
#   htrans       htrans_e         2     HTRANS_NONSEQ
#   trans        htrans_e         2     HTRANS_NONSEQ
#   beat_addr    da(integral)     1     -            
#     [0]        integral         10    'h4c         
#   beat_wdata   da(integral)     1     -            
#     [0]        integral         32    'h4ef08df5   
#   beat_rdata   da(integral)     0     -            
#   beat_resp    array(hresp_e)   1     -            
#     [0]        hresp_e          1     HRESP_OKAY   
#   beat_index   integral         32    'd0          
# ---------------------------------------------------
# 
# UVM_INFO ./../regmodel/eth_reg2ahb_adapter.sv(46) @ 305000: reporter [eth_reg2ahb_adapter] bus2reg: address = 0x4c, data = 0x4ef08df5, kind = UVM_WRITE, status = UVM_IS_OK
# UVM_INFO /home/venus/QuestaSim/uvm-1.2/src/reg/uvm_reg_predictor.svh(218) @ 305000: uvm_test_top.env.ahb_predictor [REG_PREDICT] Observed WRITE transaction to register regmodel.TX_DATA: value='h4ef08df5 : updated value = 'h4ef08df5
# UVM_INFO ./../vip/ahb_vip/ahb_driver.sv(47) @ 305000: uvm_test_top.env.ahb_agt.driver [run_phase] Completed WRITE transaction at addr 0x4c and data: 0x4ef08df5
# UVM_INFO ./../regmodel/eth_reg2ahb_adapter.sv(46) @ 305000: reporter [eth_reg2ahb_adapter] bus2reg: address = 0x4c, data = 0x4ef08df5, kind = UVM_WRITE, status = UVM_IS_OK
# UVM_INFO @ 305000: reporter [RegModel] Wrote register via map regmodel.ahb_map: regmodel.TX_DATA=0x4ef08df5
# UVM_INFO ./../regmodel/eth_reg2ahb_adapter.sv(31) @ 305000: reporter [eth_reg2ahb_adapter] reg2bus: address = 0x4c, data = 0xd1aadc79, kind = WRITE
# UVM_INFO ./../vip/ahb_vip/ahb_driver.sv(28) @ 305000: uvm_test_top.env.ahb_agt.driver [run_phase] Start WRITE transaction - ADRRESS: 0x4c
# UVM_INFO ./../vip/ahb_vip/ahb_monitor.sv(135) @ 325000: uvm_test_top.env.ahb_agt.monitor [ahb_monitor] Send trans from monitor to scoreboard: 
# ---------------------------------------------------
# Name           Type             Size  Value        
# ---------------------------------------------------
# trans          ahb_transaction  -     @1442        
#   xact_type    xact_type_enum   1     WRITE        
#   xfer_size    hsize_e          3     HSIZE_WORD   
#   burst_type   hburst_e         3     HBURST_SINGLE
#   addr         integral         10    'h4c         
#   data         integral         32    'hd1aadc79   
#   write        integral         1     1            
#   wdata        integral         32    'hd1aadc79   
#   rdata        integral         32    'h0          
#   size         hsize_e          3     HSIZE_WORD   
#   burst        hburst_e         3     HBURST_SINGLE
#   prot         integral         4     'h0          
#   lock         integral         1     'h0          
#   resp         hresp_e          1     HRESP_OKAY   
#   num_beats    integral         32    'd1          
#   idle_cycles  integral         32    'd0          
#   addr_q       da(integral)     0     -            
#   wdata_q      da(integral)     1     -            
#     [0]        integral         32    'hd1aadc79   
#   rdata_q      da(integral)     0     -            
#   resp_q       array(hresp_e)   1     -            
#     [0]        hresp_e          1     HRESP_OKAY   
#   htrans       htrans_e         2     HTRANS_NONSEQ
#   trans        htrans_e         2     HTRANS_NONSEQ
#   beat_addr    da(integral)     1     -            
#     [0]        integral         10    'h4c         
#   beat_wdata   da(integral)     1     -            
#     [0]        integral         32    'hd1aadc79   
#   beat_rdata   da(integral)     0     -            
#   beat_resp    array(hresp_e)   1     -            
#     [0]        hresp_e          1     HRESP_OKAY   
#   beat_index   integral         32    'd0          
# ---------------------------------------------------
# 
# UVM_INFO ./../regmodel/eth_reg2ahb_adapter.sv(46) @ 325000: reporter [eth_reg2ahb_adapter] bus2reg: address = 0x4c, data = 0xd1aadc79, kind = UVM_WRITE, status = UVM_IS_OK
# UVM_INFO /home/venus/QuestaSim/uvm-1.2/src/reg/uvm_reg_predictor.svh(218) @ 325000: uvm_test_top.env.ahb_predictor [REG_PREDICT] Observed WRITE transaction to register regmodel.TX_DATA: value='hd1aadc79 : updated value = 'hd1aadc79
# UVM_INFO ./../vip/ahb_vip/ahb_driver.sv(47) @ 325000: uvm_test_top.env.ahb_agt.driver [run_phase] Completed WRITE transaction at addr 0x4c and data: 0xd1aadc79
# UVM_INFO ./../regmodel/eth_reg2ahb_adapter.sv(46) @ 325000: reporter [eth_reg2ahb_adapter] bus2reg: address = 0x4c, data = 0xd1aadc79, kind = UVM_WRITE, status = UVM_IS_OK
# UVM_INFO @ 325000: reporter [RegModel] Wrote register via map regmodel.ahb_map: regmodel.TX_DATA=0xd1aadc79
# UVM_INFO ./../regmodel/eth_reg2ahb_adapter.sv(31) @ 325000: reporter [eth_reg2ahb_adapter] reg2bus: address = 0x4c, data = 0x44b3e82d, kind = WRITE
# UVM_INFO ./../vip/ahb_vip/ahb_driver.sv(28) @ 325000: uvm_test_top.env.ahb_agt.driver [run_phase] Start WRITE transaction - ADRRESS: 0x4c
# UVM_INFO ./../vip/ahb_vip/ahb_monitor.sv(135) @ 345000: uvm_test_top.env.ahb_agt.monitor [ahb_monitor] Send trans from monitor to scoreboard: 
# ---------------------------------------------------
# Name           Type             Size  Value        
# ---------------------------------------------------
# trans          ahb_transaction  -     @1484        
#   xact_type    xact_type_enum   1     WRITE        
#   xfer_size    hsize_e          3     HSIZE_WORD   
#   burst_type   hburst_e         3     HBURST_SINGLE
#   addr         integral         10    'h4c         
#   data         integral         32    'h44b3e82d   
#   write        integral         1     1            
#   wdata        integral         32    'h44b3e82d   
#   rdata        integral         32    'h0          
#   size         hsize_e          3     HSIZE_WORD   
#   burst        hburst_e         3     HBURST_SINGLE
#   prot         integral         4     'h0          
#   lock         integral         1     'h0          
#   resp         hresp_e          1     HRESP_OKAY   
#   num_beats    integral         32    'd1          
#   idle_cycles  integral         32    'd0          
#   addr_q       da(integral)     0     -            
#   wdata_q      da(integral)     1     -            
#     [0]        integral         32    'h44b3e82d   
#   rdata_q      da(integral)     0     -            
#   resp_q       array(hresp_e)   1     -            
#     [0]        hresp_e          1     HRESP_OKAY   
#   htrans       htrans_e         2     HTRANS_NONSEQ
#   trans        htrans_e         2     HTRANS_NONSEQ
#   beat_addr    da(integral)     1     -            
#     [0]        integral         10    'h4c         
#   beat_wdata   da(integral)     1     -            
#     [0]        integral         32    'h44b3e82d   
#   beat_rdata   da(integral)     0     -            
#   beat_resp    array(hresp_e)   1     -            
#     [0]        hresp_e          1     HRESP_OKAY   
#   beat_index   integral         32    'd0          
# ---------------------------------------------------
# 
# UVM_INFO ./../regmodel/eth_reg2ahb_adapter.sv(46) @ 345000: reporter [eth_reg2ahb_adapter] bus2reg: address = 0x4c, data = 0x44b3e82d, kind = UVM_WRITE, status = UVM_IS_OK
# UVM_INFO /home/venus/QuestaSim/uvm-1.2/src/reg/uvm_reg_predictor.svh(218) @ 345000: uvm_test_top.env.ahb_predictor [REG_PREDICT] Observed WRITE transaction to register regmodel.TX_DATA: value='h44b3e82d : updated value = 'h44b3e82d
# UVM_INFO ./../vip/ahb_vip/ahb_driver.sv(47) @ 345000: uvm_test_top.env.ahb_agt.driver [run_phase] Completed WRITE transaction at addr 0x4c and data: 0x44b3e82d
# UVM_INFO ./../regmodel/eth_reg2ahb_adapter.sv(46) @ 345000: reporter [eth_reg2ahb_adapter] bus2reg: address = 0x4c, data = 0x44b3e82d, kind = UVM_WRITE, status = UVM_IS_OK
# UVM_INFO @ 345000: reporter [RegModel] Wrote register via map regmodel.ahb_map: regmodel.TX_DATA=0x44b3e82d
# UVM_INFO ./../regmodel/eth_reg2ahb_adapter.sv(31) @ 345000: reporter [eth_reg2ahb_adapter] reg2bus: address = 0x4c, data = 0xfd3c6b24, kind = WRITE
# UVM_INFO ./../vip/ahb_vip/ahb_driver.sv(28) @ 345000: uvm_test_top.env.ahb_agt.driver [run_phase] Start WRITE transaction - ADRRESS: 0x4c
# UVM_INFO ./../vip/ahb_vip/ahb_monitor.sv(135) @ 365000: uvm_test_top.env.ahb_agt.monitor [ahb_monitor] Send trans from monitor to scoreboard: 
# ---------------------------------------------------
# Name           Type             Size  Value        
# ---------------------------------------------------
# trans          ahb_transaction  -     @1526        
#   xact_type    xact_type_enum   1     WRITE        
#   xfer_size    hsize_e          3     HSIZE_WORD   
#   burst_type   hburst_e         3     HBURST_SINGLE
#   addr         integral         10    'h4c         
#   data         integral         32    'hfd3c6b24   
#   write        integral         1     1            
#   wdata        integral         32    'hfd3c6b24   
#   rdata        integral         32    'h0          
#   size         hsize_e          3     HSIZE_WORD   
#   burst        hburst_e         3     HBURST_SINGLE
#   prot         integral         4     'h0          
#   lock         integral         1     'h0          
#   resp         hresp_e          1     HRESP_OKAY   
#   num_beats    integral         32    'd1          
#   idle_cycles  integral         32    'd0          
#   addr_q       da(integral)     0     -            
#   wdata_q      da(integral)     1     -            
#     [0]        integral         32    'hfd3c6b24   
#   rdata_q      da(integral)     0     -            
#   resp_q       array(hresp_e)   1     -            
#     [0]        hresp_e          1     HRESP_OKAY   
#   htrans       htrans_e         2     HTRANS_NONSEQ
#   trans        htrans_e         2     HTRANS_NONSEQ
#   beat_addr    da(integral)     1     -            
#     [0]        integral         10    'h4c         
#   beat_wdata   da(integral)     1     -            
#     [0]        integral         32    'hfd3c6b24   
#   beat_rdata   da(integral)     0     -            
#   beat_resp    array(hresp_e)   1     -            
#     [0]        hresp_e          1     HRESP_OKAY   
#   beat_index   integral         32    'd0          
# ---------------------------------------------------
# 
# UVM_INFO ./../regmodel/eth_reg2ahb_adapter.sv(46) @ 365000: reporter [eth_reg2ahb_adapter] bus2reg: address = 0x4c, data = 0xfd3c6b24, kind = UVM_WRITE, status = UVM_IS_OK
# UVM_INFO /home/venus/QuestaSim/uvm-1.2/src/reg/uvm_reg_predictor.svh(218) @ 365000: uvm_test_top.env.ahb_predictor [REG_PREDICT] Observed WRITE transaction to register regmodel.TX_DATA: value='hfd3c6b24 : updated value = 'hfd3c6b24
# UVM_INFO ./../vip/ahb_vip/ahb_driver.sv(47) @ 365000: uvm_test_top.env.ahb_agt.driver [run_phase] Completed WRITE transaction at addr 0x4c and data: 0xfd3c6b24
# UVM_INFO ./../regmodel/eth_reg2ahb_adapter.sv(46) @ 365000: reporter [eth_reg2ahb_adapter] bus2reg: address = 0x4c, data = 0xfd3c6b24, kind = UVM_WRITE, status = UVM_IS_OK
# UVM_INFO @ 365000: reporter [RegModel] Wrote register via map regmodel.ahb_map: regmodel.TX_DATA=0xfd3c6b24
# UVM_INFO ./../regmodel/eth_reg2ahb_adapter.sv(31) @ 365000: reporter [eth_reg2ahb_adapter] reg2bus: address = 0x4c, data = 0x90faeec8, kind = WRITE
# UVM_INFO ./../vip/ahb_vip/ahb_driver.sv(28) @ 365000: uvm_test_top.env.ahb_agt.driver [run_phase] Start WRITE transaction - ADRRESS: 0x4c
# UVM_INFO ./../vip/ahb_vip/ahb_monitor.sv(135) @ 385000: uvm_test_top.env.ahb_agt.monitor [ahb_monitor] Send trans from monitor to scoreboard: 
# ---------------------------------------------------
# Name           Type             Size  Value        
# ---------------------------------------------------
# trans          ahb_transaction  -     @1568        
#   xact_type    xact_type_enum   1     WRITE        
#   xfer_size    hsize_e          3     HSIZE_WORD   
#   burst_type   hburst_e         3     HBURST_SINGLE
#   addr         integral         10    'h4c         
#   data         integral         32    'h90faeec8   
#   write        integral         1     1            
#   wdata        integral         32    'h90faeec8   
#   rdata        integral         32    'h0          
#   size         hsize_e          3     HSIZE_WORD   
#   burst        hburst_e         3     HBURST_SINGLE
#   prot         integral         4     'h0          
#   lock         integral         1     'h0          
#   resp         hresp_e          1     HRESP_OKAY   
#   num_beats    integral         32    'd1          
#   idle_cycles  integral         32    'd0          
#   addr_q       da(integral)     0     -            
#   wdata_q      da(integral)     1     -            
#     [0]        integral         32    'h90faeec8   
#   rdata_q      da(integral)     0     -            
#   resp_q       array(hresp_e)   1     -            
#     [0]        hresp_e          1     HRESP_OKAY   
#   htrans       htrans_e         2     HTRANS_NONSEQ
#   trans        htrans_e         2     HTRANS_NONSEQ
#   beat_addr    da(integral)     1     -            
#     [0]        integral         10    'h4c         
#   beat_wdata   da(integral)     1     -            
#     [0]        integral         32    'h90faeec8   
#   beat_rdata   da(integral)     0     -            
#   beat_resp    array(hresp_e)   1     -            
#     [0]        hresp_e          1     HRESP_OKAY   
#   beat_index   integral         32    'd0          
# ---------------------------------------------------
# 
# UVM_INFO ./../regmodel/eth_reg2ahb_adapter.sv(46) @ 385000: reporter [eth_reg2ahb_adapter] bus2reg: address = 0x4c, data = 0x90faeec8, kind = UVM_WRITE, status = UVM_IS_OK
# UVM_INFO /home/venus/QuestaSim/uvm-1.2/src/reg/uvm_reg_predictor.svh(218) @ 385000: uvm_test_top.env.ahb_predictor [REG_PREDICT] Observed WRITE transaction to register regmodel.TX_DATA: value='h90faeec8 : updated value = 'h90faeec8
# UVM_INFO ./../vip/ahb_vip/ahb_driver.sv(47) @ 385000: uvm_test_top.env.ahb_agt.driver [run_phase] Completed WRITE transaction at addr 0x4c and data: 0x90faeec8
# UVM_INFO ./../regmodel/eth_reg2ahb_adapter.sv(46) @ 385000: reporter [eth_reg2ahb_adapter] bus2reg: address = 0x4c, data = 0x90faeec8, kind = UVM_WRITE, status = UVM_IS_OK
# UVM_INFO @ 385000: reporter [RegModel] Wrote register via map regmodel.ahb_map: regmodel.TX_DATA=0x90faeec8
# UVM_INFO ./../regmodel/eth_reg2ahb_adapter.sv(31) @ 385000: reporter [eth_reg2ahb_adapter] reg2bus: address = 0x4c, data = 0x188e41a9, kind = WRITE
# UVM_INFO ./../vip/ahb_vip/ahb_driver.sv(28) @ 385000: uvm_test_top.env.ahb_agt.driver [run_phase] Start WRITE transaction - ADRRESS: 0x4c
# UVM_INFO ./../vip/ahb_vip/ahb_monitor.sv(135) @ 405000: uvm_test_top.env.ahb_agt.monitor [ahb_monitor] Send trans from monitor to scoreboard: 
# ---------------------------------------------------
# Name           Type             Size  Value        
# ---------------------------------------------------
# trans          ahb_transaction  -     @1610        
#   xact_type    xact_type_enum   1     WRITE        
#   xfer_size    hsize_e          3     HSIZE_WORD   
#   burst_type   hburst_e         3     HBURST_SINGLE
#   addr         integral         10    'h4c         
#   data         integral         32    'h188e41a9   
#   write        integral         1     1            
#   wdata        integral         32    'h188e41a9   
#   rdata        integral         32    'h0          
#   size         hsize_e          3     HSIZE_WORD   
#   burst        hburst_e         3     HBURST_SINGLE
#   prot         integral         4     'h0          
#   lock         integral         1     'h0          
#   resp         hresp_e          1     HRESP_OKAY   
#   num_beats    integral         32    'd1          
#   idle_cycles  integral         32    'd0          
#   addr_q       da(integral)     0     -            
#   wdata_q      da(integral)     1     -            
#     [0]        integral         32    'h188e41a9   
#   rdata_q      da(integral)     0     -            
#   resp_q       array(hresp_e)   1     -            
#     [0]        hresp_e          1     HRESP_OKAY   
#   htrans       htrans_e         2     HTRANS_NONSEQ
#   trans        htrans_e         2     HTRANS_NONSEQ
#   beat_addr    da(integral)     1     -            
#     [0]        integral         10    'h4c         
#   beat_wdata   da(integral)     1     -            
#     [0]        integral         32    'h188e41a9   
#   beat_rdata   da(integral)     0     -            
#   beat_resp    array(hresp_e)   1     -            
#     [0]        hresp_e          1     HRESP_OKAY   
#   beat_index   integral         32    'd0          
# ---------------------------------------------------
# 
# UVM_INFO ./../regmodel/eth_reg2ahb_adapter.sv(46) @ 405000: reporter [eth_reg2ahb_adapter] bus2reg: address = 0x4c, data = 0x188e41a9, kind = UVM_WRITE, status = UVM_IS_OK
# UVM_INFO /home/venus/QuestaSim/uvm-1.2/src/reg/uvm_reg_predictor.svh(218) @ 405000: uvm_test_top.env.ahb_predictor [REG_PREDICT] Observed WRITE transaction to register regmodel.TX_DATA: value='h188e41a9 : updated value = 'h188e41a9
# UVM_INFO ./../vip/ahb_vip/ahb_driver.sv(47) @ 405000: uvm_test_top.env.ahb_agt.driver [run_phase] Completed WRITE transaction at addr 0x4c and data: 0x188e41a9
# UVM_INFO ./../regmodel/eth_reg2ahb_adapter.sv(46) @ 405000: reporter [eth_reg2ahb_adapter] bus2reg: address = 0x4c, data = 0x188e41a9, kind = UVM_WRITE, status = UVM_IS_OK
# UVM_INFO @ 405000: reporter [RegModel] Wrote register via map regmodel.ahb_map: regmodel.TX_DATA=0x188e41a9
# UVM_INFO ./../regmodel/eth_reg2ahb_adapter.sv(31) @ 405000: reporter [eth_reg2ahb_adapter] reg2bus: address = 0x4c, data = 0xd40fc93c, kind = WRITE
# UVM_INFO ./../vip/ahb_vip/ahb_driver.sv(28) @ 405000: uvm_test_top.env.ahb_agt.driver [run_phase] Start WRITE transaction - ADRRESS: 0x4c
# UVM_INFO ./../vip/ahb_vip/ahb_monitor.sv(135) @ 425000: uvm_test_top.env.ahb_agt.monitor [ahb_monitor] Send trans from monitor to scoreboard: 
# ---------------------------------------------------
# Name           Type             Size  Value        
# ---------------------------------------------------
# trans          ahb_transaction  -     @1652        
#   xact_type    xact_type_enum   1     WRITE        
#   xfer_size    hsize_e          3     HSIZE_WORD   
#   burst_type   hburst_e         3     HBURST_SINGLE
#   addr         integral         10    'h4c         
#   data         integral         32    'hd40fc93c   
#   write        integral         1     1            
#   wdata        integral         32    'hd40fc93c   
#   rdata        integral         32    'h0          
#   size         hsize_e          3     HSIZE_WORD   
#   burst        hburst_e         3     HBURST_SINGLE
#   prot         integral         4     'h0          
#   lock         integral         1     'h0          
#   resp         hresp_e          1     HRESP_OKAY   
#   num_beats    integral         32    'd1          
#   idle_cycles  integral         32    'd0          
#   addr_q       da(integral)     0     -            
#   wdata_q      da(integral)     1     -            
#     [0]        integral         32    'hd40fc93c   
#   rdata_q      da(integral)     0     -            
#   resp_q       array(hresp_e)   1     -            
#     [0]        hresp_e          1     HRESP_OKAY   
#   htrans       htrans_e         2     HTRANS_NONSEQ
#   trans        htrans_e         2     HTRANS_NONSEQ
#   beat_addr    da(integral)     1     -            
#     [0]        integral         10    'h4c         
#   beat_wdata   da(integral)     1     -            
#     [0]        integral         32    'hd40fc93c   
#   beat_rdata   da(integral)     0     -            
#   beat_resp    array(hresp_e)   1     -            
#     [0]        hresp_e          1     HRESP_OKAY   
#   beat_index   integral         32    'd0          
# ---------------------------------------------------
# 
# UVM_INFO ./../regmodel/eth_reg2ahb_adapter.sv(46) @ 425000: reporter [eth_reg2ahb_adapter] bus2reg: address = 0x4c, data = 0xd40fc93c, kind = UVM_WRITE, status = UVM_IS_OK
# UVM_INFO /home/venus/QuestaSim/uvm-1.2/src/reg/uvm_reg_predictor.svh(218) @ 425000: uvm_test_top.env.ahb_predictor [REG_PREDICT] Observed WRITE transaction to register regmodel.TX_DATA: value='hd40fc93c : updated value = 'hd40fc93c
# UVM_INFO ./../vip/ahb_vip/ahb_driver.sv(47) @ 425000: uvm_test_top.env.ahb_agt.driver [run_phase] Completed WRITE transaction at addr 0x4c and data: 0xd40fc93c
# UVM_INFO ./../regmodel/eth_reg2ahb_adapter.sv(46) @ 425000: reporter [eth_reg2ahb_adapter] bus2reg: address = 0x4c, data = 0xd40fc93c, kind = UVM_WRITE, status = UVM_IS_OK
# UVM_INFO @ 425000: reporter [RegModel] Wrote register via map regmodel.ahb_map: regmodel.TX_DATA=0xd40fc93c
# UVM_INFO ./../regmodel/eth_reg2ahb_adapter.sv(31) @ 425000: reporter [eth_reg2ahb_adapter] reg2bus: address = 0x4c, data = 0x9c9159d2, kind = WRITE
# UVM_INFO ./../vip/ahb_vip/ahb_driver.sv(28) @ 425000: uvm_test_top.env.ahb_agt.driver [run_phase] Start WRITE transaction - ADRRESS: 0x4c
# UVM_INFO ./../vip/ahb_vip/ahb_monitor.sv(135) @ 445000: uvm_test_top.env.ahb_agt.monitor [ahb_monitor] Send trans from monitor to scoreboard: 
# ---------------------------------------------------
# Name           Type             Size  Value        
# ---------------------------------------------------
# trans          ahb_transaction  -     @1694        
#   xact_type    xact_type_enum   1     WRITE        
#   xfer_size    hsize_e          3     HSIZE_WORD   
#   burst_type   hburst_e         3     HBURST_SINGLE
#   addr         integral         10    'h4c         
#   data         integral         32    'h9c9159d2   
#   write        integral         1     1            
#   wdata        integral         32    'h9c9159d2   
#   rdata        integral         32    'h0          
#   size         hsize_e          3     HSIZE_WORD   
#   burst        hburst_e         3     HBURST_SINGLE
#   prot         integral         4     'h0          
#   lock         integral         1     'h0          
#   resp         hresp_e          1     HRESP_OKAY   
#   num_beats    integral         32    'd1          
#   idle_cycles  integral         32    'd0          
#   addr_q       da(integral)     0     -            
#   wdata_q      da(integral)     1     -            
#     [0]        integral         32    'h9c9159d2   
#   rdata_q      da(integral)     0     -            
#   resp_q       array(hresp_e)   1     -            
#     [0]        hresp_e          1     HRESP_OKAY   
#   htrans       htrans_e         2     HTRANS_NONSEQ
#   trans        htrans_e         2     HTRANS_NONSEQ
#   beat_addr    da(integral)     1     -            
#     [0]        integral         10    'h4c         
#   beat_wdata   da(integral)     1     -            
#     [0]        integral         32    'h9c9159d2   
#   beat_rdata   da(integral)     0     -            
#   beat_resp    array(hresp_e)   1     -            
#     [0]        hresp_e          1     HRESP_OKAY   
#   beat_index   integral         32    'd0          
# ---------------------------------------------------
# 
# UVM_INFO ./../regmodel/eth_reg2ahb_adapter.sv(46) @ 445000: reporter [eth_reg2ahb_adapter] bus2reg: address = 0x4c, data = 0x9c9159d2, kind = UVM_WRITE, status = UVM_IS_OK
# UVM_INFO /home/venus/QuestaSim/uvm-1.2/src/reg/uvm_reg_predictor.svh(218) @ 445000: uvm_test_top.env.ahb_predictor [REG_PREDICT] Observed WRITE transaction to register regmodel.TX_DATA: value='h9c9159d2 : updated value = 'h9c9159d2
# UVM_INFO ./../vip/ahb_vip/ahb_driver.sv(47) @ 445000: uvm_test_top.env.ahb_agt.driver [run_phase] Completed WRITE transaction at addr 0x4c and data: 0x9c9159d2
# UVM_INFO ./../regmodel/eth_reg2ahb_adapter.sv(46) @ 445000: reporter [eth_reg2ahb_adapter] bus2reg: address = 0x4c, data = 0x9c9159d2, kind = UVM_WRITE, status = UVM_IS_OK
# UVM_INFO @ 445000: reporter [RegModel] Wrote register via map regmodel.ahb_map: regmodel.TX_DATA=0x9c9159d2
# UVM_INFO ./../regmodel/eth_reg2ahb_adapter.sv(31) @ 445000: reporter [eth_reg2ahb_adapter] reg2bus: address = 0x4c, data = 0x538cca70, kind = WRITE
# UVM_INFO ./../vip/ahb_vip/ahb_driver.sv(28) @ 445000: uvm_test_top.env.ahb_agt.driver [run_phase] Start WRITE transaction - ADRRESS: 0x4c
# UVM_INFO ./../vip/ahb_vip/ahb_monitor.sv(135) @ 465000: uvm_test_top.env.ahb_agt.monitor [ahb_monitor] Send trans from monitor to scoreboard: 
# ---------------------------------------------------
# Name           Type             Size  Value        
# ---------------------------------------------------
# trans          ahb_transaction  -     @1736        
#   xact_type    xact_type_enum   1     WRITE        
#   xfer_size    hsize_e          3     HSIZE_WORD   
#   burst_type   hburst_e         3     HBURST_SINGLE
#   addr         integral         10    'h4c         
#   data         integral         32    'h538cca70   
#   write        integral         1     1            
#   wdata        integral         32    'h538cca70   
#   rdata        integral         32    'h0          
#   size         hsize_e          3     HSIZE_WORD   
#   burst        hburst_e         3     HBURST_SINGLE
#   prot         integral         4     'h0          
#   lock         integral         1     'h0          
#   resp         hresp_e          1     HRESP_OKAY   
#   num_beats    integral         32    'd1          
#   idle_cycles  integral         32    'd0          
#   addr_q       da(integral)     0     -            
#   wdata_q      da(integral)     1     -            
#     [0]        integral         32    'h538cca70   
#   rdata_q      da(integral)     0     -            
#   resp_q       array(hresp_e)   1     -            
#     [0]        hresp_e          1     HRESP_OKAY   
#   htrans       htrans_e         2     HTRANS_NONSEQ
#   trans        htrans_e         2     HTRANS_NONSEQ
#   beat_addr    da(integral)     1     -            
#     [0]        integral         10    'h4c         
#   beat_wdata   da(integral)     1     -            
#     [0]        integral         32    'h538cca70   
#   beat_rdata   da(integral)     0     -            
#   beat_resp    array(hresp_e)   1     -            
#     [0]        hresp_e          1     HRESP_OKAY   
#   beat_index   integral         32    'd0          
# ---------------------------------------------------
# 
# UVM_INFO ./../regmodel/eth_reg2ahb_adapter.sv(46) @ 465000: reporter [eth_reg2ahb_adapter] bus2reg: address = 0x4c, data = 0x538cca70, kind = UVM_WRITE, status = UVM_IS_OK
# UVM_INFO /home/venus/QuestaSim/uvm-1.2/src/reg/uvm_reg_predictor.svh(218) @ 465000: uvm_test_top.env.ahb_predictor [REG_PREDICT] Observed WRITE transaction to register regmodel.TX_DATA: value='h538cca70 : updated value = 'h538cca70
# UVM_INFO ./../vip/ahb_vip/ahb_driver.sv(47) @ 465000: uvm_test_top.env.ahb_agt.driver [run_phase] Completed WRITE transaction at addr 0x4c and data: 0x538cca70
# UVM_INFO ./../regmodel/eth_reg2ahb_adapter.sv(46) @ 465000: reporter [eth_reg2ahb_adapter] bus2reg: address = 0x4c, data = 0x538cca70, kind = UVM_WRITE, status = UVM_IS_OK
# UVM_INFO @ 465000: reporter [RegModel] Wrote register via map regmodel.ahb_map: regmodel.TX_DATA=0x538cca70
# UVM_INFO ./../regmodel/eth_reg2ahb_adapter.sv(31) @ 465000: reporter [eth_reg2ahb_adapter] reg2bus: address = 0x4c, data = 0x974473a1, kind = WRITE
# UVM_INFO ./../vip/ahb_vip/ahb_driver.sv(28) @ 465000: uvm_test_top.env.ahb_agt.driver [run_phase] Start WRITE transaction - ADRRESS: 0x4c
# UVM_INFO ./../vip/ahb_vip/ahb_monitor.sv(135) @ 485000: uvm_test_top.env.ahb_agt.monitor [ahb_monitor] Send trans from monitor to scoreboard: 
# ---------------------------------------------------
# Name           Type             Size  Value        
# ---------------------------------------------------
# trans          ahb_transaction  -     @1778        
#   xact_type    xact_type_enum   1     WRITE        
#   xfer_size    hsize_e          3     HSIZE_WORD   
#   burst_type   hburst_e         3     HBURST_SINGLE
#   addr         integral         10    'h4c         
#   data         integral         32    'h974473a1   
#   write        integral         1     1            
#   wdata        integral         32    'h974473a1   
#   rdata        integral         32    'h0          
#   size         hsize_e          3     HSIZE_WORD   
#   burst        hburst_e         3     HBURST_SINGLE
#   prot         integral         4     'h0          
#   lock         integral         1     'h0          
#   resp         hresp_e          1     HRESP_OKAY   
#   num_beats    integral         32    'd1          
#   idle_cycles  integral         32    'd0          
#   addr_q       da(integral)     0     -            
#   wdata_q      da(integral)     1     -            
#     [0]        integral         32    'h974473a1   
#   rdata_q      da(integral)     0     -            
#   resp_q       array(hresp_e)   1     -            
#     [0]        hresp_e          1     HRESP_OKAY   
#   htrans       htrans_e         2     HTRANS_NONSEQ
#   trans        htrans_e         2     HTRANS_NONSEQ
#   beat_addr    da(integral)     1     -            
#     [0]        integral         10    'h4c         
#   beat_wdata   da(integral)     1     -            
#     [0]        integral         32    'h974473a1   
#   beat_rdata   da(integral)     0     -            
#   beat_resp    array(hresp_e)   1     -            
#     [0]        hresp_e          1     HRESP_OKAY   
#   beat_index   integral         32    'd0          
# ---------------------------------------------------
# 
# UVM_INFO ./../regmodel/eth_reg2ahb_adapter.sv(46) @ 485000: reporter [eth_reg2ahb_adapter] bus2reg: address = 0x4c, data = 0x974473a1, kind = UVM_WRITE, status = UVM_IS_OK
# UVM_INFO /home/venus/QuestaSim/uvm-1.2/src/reg/uvm_reg_predictor.svh(218) @ 485000: uvm_test_top.env.ahb_predictor [REG_PREDICT] Observed WRITE transaction to register regmodel.TX_DATA: value='h974473a1 : updated value = 'h974473a1
# UVM_INFO ./../vip/ahb_vip/ahb_driver.sv(47) @ 485000: uvm_test_top.env.ahb_agt.driver [run_phase] Completed WRITE transaction at addr 0x4c and data: 0x974473a1
# UVM_INFO ./../regmodel/eth_reg2ahb_adapter.sv(46) @ 485000: reporter [eth_reg2ahb_adapter] bus2reg: address = 0x4c, data = 0x974473a1, kind = UVM_WRITE, status = UVM_IS_OK
# UVM_INFO @ 485000: reporter [RegModel] Wrote register via map regmodel.ahb_map: regmodel.TX_DATA=0x974473a1
# UVM_INFO ./../regmodel/eth_reg2ahb_adapter.sv(31) @ 485000: reporter [eth_reg2ahb_adapter] reg2bus: address = 0x4c, data = 0xad26ece3, kind = WRITE
# UVM_INFO ./../vip/ahb_vip/ahb_driver.sv(28) @ 485000: uvm_test_top.env.ahb_agt.driver [run_phase] Start WRITE transaction - ADRRESS: 0x4c
# UVM_INFO ./../vip/ahb_vip/ahb_monitor.sv(135) @ 505000: uvm_test_top.env.ahb_agt.monitor [ahb_monitor] Send trans from monitor to scoreboard: 
# ---------------------------------------------------
# Name           Type             Size  Value        
# ---------------------------------------------------
# trans          ahb_transaction  -     @1820        
#   xact_type    xact_type_enum   1     WRITE        
#   xfer_size    hsize_e          3     HSIZE_WORD   
#   burst_type   hburst_e         3     HBURST_SINGLE
#   addr         integral         10    'h4c         
#   data         integral         32    'had26ece3   
#   write        integral         1     1            
#   wdata        integral         32    'had26ece3   
#   rdata        integral         32    'h0          
#   size         hsize_e          3     HSIZE_WORD   
#   burst        hburst_e         3     HBURST_SINGLE
#   prot         integral         4     'h0          
#   lock         integral         1     'h0          
#   resp         hresp_e          1     HRESP_OKAY   
#   num_beats    integral         32    'd1          
#   idle_cycles  integral         32    'd0          
#   addr_q       da(integral)     0     -            
#   wdata_q      da(integral)     1     -            
#     [0]        integral         32    'had26ece3   
#   rdata_q      da(integral)     0     -            
#   resp_q       array(hresp_e)   1     -            
#     [0]        hresp_e          1     HRESP_OKAY   
#   htrans       htrans_e         2     HTRANS_NONSEQ
#   trans        htrans_e         2     HTRANS_NONSEQ
#   beat_addr    da(integral)     1     -            
#     [0]        integral         10    'h4c         
#   beat_wdata   da(integral)     1     -            
#     [0]        integral         32    'had26ece3   
#   beat_rdata   da(integral)     0     -            
#   beat_resp    array(hresp_e)   1     -            
#     [0]        hresp_e          1     HRESP_OKAY   
#   beat_index   integral         32    'd0          
# ---------------------------------------------------
# 
# UVM_INFO ./../regmodel/eth_reg2ahb_adapter.sv(46) @ 505000: reporter [eth_reg2ahb_adapter] bus2reg: address = 0x4c, data = 0xad26ece3, kind = UVM_WRITE, status = UVM_IS_OK
# UVM_INFO /home/venus/QuestaSim/uvm-1.2/src/reg/uvm_reg_predictor.svh(218) @ 505000: uvm_test_top.env.ahb_predictor [REG_PREDICT] Observed WRITE transaction to register regmodel.TX_DATA: value='had26ece3 : updated value = 'had26ece3
# UVM_INFO ./../vip/ahb_vip/ahb_driver.sv(47) @ 505000: uvm_test_top.env.ahb_agt.driver [run_phase] Completed WRITE transaction at addr 0x4c and data: 0xad26ece3
# UVM_INFO ./../regmodel/eth_reg2ahb_adapter.sv(46) @ 505000: reporter [eth_reg2ahb_adapter] bus2reg: address = 0x4c, data = 0xad26ece3, kind = UVM_WRITE, status = UVM_IS_OK
# UVM_INFO @ 505000: reporter [RegModel] Wrote register via map regmodel.ahb_map: regmodel.TX_DATA=0xad26ece3
# UVM_INFO ./../regmodel/eth_reg2ahb_adapter.sv(31) @ 505000: reporter [eth_reg2ahb_adapter] reg2bus: address = 0x4c, data = 0x25608ee9, kind = WRITE
# UVM_INFO ./../vip/ahb_vip/ahb_driver.sv(28) @ 505000: uvm_test_top.env.ahb_agt.driver [run_phase] Start WRITE transaction - ADRRESS: 0x4c
# UVM_INFO ./../vip/ahb_vip/ahb_monitor.sv(135) @ 525000: uvm_test_top.env.ahb_agt.monitor [ahb_monitor] Send trans from monitor to scoreboard: 
# ---------------------------------------------------
# Name           Type             Size  Value        
# ---------------------------------------------------
# trans          ahb_transaction  -     @1862        
#   xact_type    xact_type_enum   1     WRITE        
#   xfer_size    hsize_e          3     HSIZE_WORD   
#   burst_type   hburst_e         3     HBURST_SINGLE
#   addr         integral         10    'h4c         
#   data         integral         32    'h25608ee9   
#   write        integral         1     1            
#   wdata        integral         32    'h25608ee9   
#   rdata        integral         32    'h0          
#   size         hsize_e          3     HSIZE_WORD   
#   burst        hburst_e         3     HBURST_SINGLE
#   prot         integral         4     'h0          
#   lock         integral         1     'h0          
#   resp         hresp_e          1     HRESP_OKAY   
#   num_beats    integral         32    'd1          
#   idle_cycles  integral         32    'd0          
#   addr_q       da(integral)     0     -            
#   wdata_q      da(integral)     1     -            
#     [0]        integral         32    'h25608ee9   
#   rdata_q      da(integral)     0     -            
#   resp_q       array(hresp_e)   1     -            
#     [0]        hresp_e          1     HRESP_OKAY   
#   htrans       htrans_e         2     HTRANS_NONSEQ
#   trans        htrans_e         2     HTRANS_NONSEQ
#   beat_addr    da(integral)     1     -            
#     [0]        integral         10    'h4c         
#   beat_wdata   da(integral)     1     -            
#     [0]        integral         32    'h25608ee9   
#   beat_rdata   da(integral)     0     -            
#   beat_resp    array(hresp_e)   1     -            
#     [0]        hresp_e          1     HRESP_OKAY   
#   beat_index   integral         32    'd0          
# ---------------------------------------------------
# 
# UVM_INFO ./../regmodel/eth_reg2ahb_adapter.sv(46) @ 525000: reporter [eth_reg2ahb_adapter] bus2reg: address = 0x4c, data = 0x25608ee9, kind = UVM_WRITE, status = UVM_IS_OK
# UVM_INFO /home/venus/QuestaSim/uvm-1.2/src/reg/uvm_reg_predictor.svh(218) @ 525000: uvm_test_top.env.ahb_predictor [REG_PREDICT] Observed WRITE transaction to register regmodel.TX_DATA: value='h25608ee9 : updated value = 'h25608ee9
# UVM_INFO ./../vip/ahb_vip/ahb_driver.sv(47) @ 525000: uvm_test_top.env.ahb_agt.driver [run_phase] Completed WRITE transaction at addr 0x4c and data: 0x25608ee9
# UVM_INFO ./../regmodel/eth_reg2ahb_adapter.sv(46) @ 525000: reporter [eth_reg2ahb_adapter] bus2reg: address = 0x4c, data = 0x25608ee9, kind = UVM_WRITE, status = UVM_IS_OK
# UVM_INFO @ 525000: reporter [RegModel] Wrote register via map regmodel.ahb_map: regmodel.TX_DATA=0x25608ee9
# UVM_INFO ./../regmodel/eth_reg2ahb_adapter.sv(31) @ 525000: reporter [eth_reg2ahb_adapter] reg2bus: address = 0x4c, data = 0x4bd977d6, kind = WRITE
# UVM_INFO ./../vip/ahb_vip/ahb_driver.sv(28) @ 525000: uvm_test_top.env.ahb_agt.driver [run_phase] Start WRITE transaction - ADRRESS: 0x4c
# UVM_INFO ./../vip/ahb_vip/ahb_monitor.sv(135) @ 545000: uvm_test_top.env.ahb_agt.monitor [ahb_monitor] Send trans from monitor to scoreboard: 
# ---------------------------------------------------
# Name           Type             Size  Value        
# ---------------------------------------------------
# trans          ahb_transaction  -     @1904        
#   xact_type    xact_type_enum   1     WRITE        
#   xfer_size    hsize_e          3     HSIZE_WORD   
#   burst_type   hburst_e         3     HBURST_SINGLE
#   addr         integral         10    'h4c         
#   data         integral         32    'h4bd977d6   
#   write        integral         1     1            
#   wdata        integral         32    'h4bd977d6   
#   rdata        integral         32    'h0          
#   size         hsize_e          3     HSIZE_WORD   
#   burst        hburst_e         3     HBURST_SINGLE
#   prot         integral         4     'h0          
#   lock         integral         1     'h0          
#   resp         hresp_e          1     HRESP_OKAY   
#   num_beats    integral         32    'd1          
#   idle_cycles  integral         32    'd0          
#   addr_q       da(integral)     0     -            
#   wdata_q      da(integral)     1     -            
#     [0]        integral         32    'h4bd977d6   
#   rdata_q      da(integral)     0     -            
#   resp_q       array(hresp_e)   1     -            
#     [0]        hresp_e          1     HRESP_OKAY   
#   htrans       htrans_e         2     HTRANS_NONSEQ
#   trans        htrans_e         2     HTRANS_NONSEQ
#   beat_addr    da(integral)     1     -            
#     [0]        integral         10    'h4c         
#   beat_wdata   da(integral)     1     -            
#     [0]        integral         32    'h4bd977d6   
#   beat_rdata   da(integral)     0     -            
#   beat_resp    array(hresp_e)   1     -            
#     [0]        hresp_e          1     HRESP_OKAY   
#   beat_index   integral         32    'd0          
# ---------------------------------------------------
# 
# UVM_INFO ./../regmodel/eth_reg2ahb_adapter.sv(46) @ 545000: reporter [eth_reg2ahb_adapter] bus2reg: address = 0x4c, data = 0x4bd977d6, kind = UVM_WRITE, status = UVM_IS_OK
# UVM_INFO /home/venus/QuestaSim/uvm-1.2/src/reg/uvm_reg_predictor.svh(218) @ 545000: uvm_test_top.env.ahb_predictor [REG_PREDICT] Observed WRITE transaction to register regmodel.TX_DATA: value='h4bd977d6 : updated value = 'h4bd977d6
# UVM_INFO ./../vip/ahb_vip/ahb_driver.sv(47) @ 545000: uvm_test_top.env.ahb_agt.driver [run_phase] Completed WRITE transaction at addr 0x4c and data: 0x4bd977d6
# UVM_INFO ./../regmodel/eth_reg2ahb_adapter.sv(46) @ 545000: reporter [eth_reg2ahb_adapter] bus2reg: address = 0x4c, data = 0x4bd977d6, kind = UVM_WRITE, status = UVM_IS_OK
# UVM_INFO @ 545000: reporter [RegModel] Wrote register via map regmodel.ahb_map: regmodel.TX_DATA=0x4bd977d6
# UVM_INFO ./../regmodel/eth_reg2ahb_adapter.sv(31) @ 545000: reporter [eth_reg2ahb_adapter] reg2bus: address = 0x4c, data = 0x91c29ab0, kind = WRITE
# UVM_INFO ./../vip/ahb_vip/ahb_driver.sv(28) @ 545000: uvm_test_top.env.ahb_agt.driver [run_phase] Start WRITE transaction - ADRRESS: 0x4c
# UVM_INFO ./../vip/ahb_vip/ahb_monitor.sv(135) @ 565000: uvm_test_top.env.ahb_agt.monitor [ahb_monitor] Send trans from monitor to scoreboard: 
# ---------------------------------------------------
# Name           Type             Size  Value        
# ---------------------------------------------------
# trans          ahb_transaction  -     @1946        
#   xact_type    xact_type_enum   1     WRITE        
#   xfer_size    hsize_e          3     HSIZE_WORD   
#   burst_type   hburst_e         3     HBURST_SINGLE
#   addr         integral         10    'h4c         
#   data         integral         32    'h91c29ab0   
#   write        integral         1     1            
#   wdata        integral         32    'h91c29ab0   
#   rdata        integral         32    'h0          
#   size         hsize_e          3     HSIZE_WORD   
#   burst        hburst_e         3     HBURST_SINGLE
#   prot         integral         4     'h0          
#   lock         integral         1     'h0          
#   resp         hresp_e          1     HRESP_OKAY   
#   num_beats    integral         32    'd1          
#   idle_cycles  integral         32    'd0          
#   addr_q       da(integral)     0     -            
#   wdata_q      da(integral)     1     -            
#     [0]        integral         32    'h91c29ab0   
#   rdata_q      da(integral)     0     -            
#   resp_q       array(hresp_e)   1     -            
#     [0]        hresp_e          1     HRESP_OKAY   
#   htrans       htrans_e         2     HTRANS_NONSEQ
#   trans        htrans_e         2     HTRANS_NONSEQ
#   beat_addr    da(integral)     1     -            
#     [0]        integral         10    'h4c         
#   beat_wdata   da(integral)     1     -            
#     [0]        integral         32    'h91c29ab0   
#   beat_rdata   da(integral)     0     -            
#   beat_resp    array(hresp_e)   1     -            
#     [0]        hresp_e          1     HRESP_OKAY   
#   beat_index   integral         32    'd0          
# ---------------------------------------------------
# 
# UVM_INFO ./../regmodel/eth_reg2ahb_adapter.sv(46) @ 565000: reporter [eth_reg2ahb_adapter] bus2reg: address = 0x4c, data = 0x91c29ab0, kind = UVM_WRITE, status = UVM_IS_OK
# UVM_INFO /home/venus/QuestaSim/uvm-1.2/src/reg/uvm_reg_predictor.svh(218) @ 565000: uvm_test_top.env.ahb_predictor [REG_PREDICT] Observed WRITE transaction to register regmodel.TX_DATA: value='h91c29ab0 : updated value = 'h91c29ab0
# UVM_INFO ./../vip/ahb_vip/ahb_driver.sv(47) @ 565000: uvm_test_top.env.ahb_agt.driver [run_phase] Completed WRITE transaction at addr 0x4c and data: 0x91c29ab0
# UVM_INFO ./../regmodel/eth_reg2ahb_adapter.sv(46) @ 565000: reporter [eth_reg2ahb_adapter] bus2reg: address = 0x4c, data = 0x91c29ab0, kind = UVM_WRITE, status = UVM_IS_OK
# UVM_INFO @ 565000: reporter [RegModel] Wrote register via map regmodel.ahb_map: regmodel.TX_DATA=0x91c29ab0
# UVM_INFO ./../regmodel/eth_reg2ahb_adapter.sv(31) @ 565000: reporter [eth_reg2ahb_adapter] reg2bus: address = 0x4c, data = 0x572ecedb, kind = WRITE
# UVM_INFO ./../vip/ahb_vip/ahb_driver.sv(28) @ 565000: uvm_test_top.env.ahb_agt.driver [run_phase] Start WRITE transaction - ADRRESS: 0x4c
# UVM_INFO ./../vip/ahb_vip/ahb_monitor.sv(135) @ 585000: uvm_test_top.env.ahb_agt.monitor [ahb_monitor] Send trans from monitor to scoreboard: 
# ---------------------------------------------------
# Name           Type             Size  Value        
# ---------------------------------------------------
# trans          ahb_transaction  -     @1988        
#   xact_type    xact_type_enum   1     WRITE        
#   xfer_size    hsize_e          3     HSIZE_WORD   
#   burst_type   hburst_e         3     HBURST_SINGLE
#   addr         integral         10    'h4c         
#   data         integral         32    'h572ecedb   
#   write        integral         1     1            
#   wdata        integral         32    'h572ecedb   
#   rdata        integral         32    'h0          
#   size         hsize_e          3     HSIZE_WORD   
#   burst        hburst_e         3     HBURST_SINGLE
#   prot         integral         4     'h0          
#   lock         integral         1     'h0          
#   resp         hresp_e          1     HRESP_OKAY   
#   num_beats    integral         32    'd1          
#   idle_cycles  integral         32    'd0          
#   addr_q       da(integral)     0     -            
#   wdata_q      da(integral)     1     -            
#     [0]        integral         32    'h572ecedb   
#   rdata_q      da(integral)     0     -            
#   resp_q       array(hresp_e)   1     -            
#     [0]        hresp_e          1     HRESP_OKAY   
#   htrans       htrans_e         2     HTRANS_NONSEQ
#   trans        htrans_e         2     HTRANS_NONSEQ
#   beat_addr    da(integral)     1     -            
#     [0]        integral         10    'h4c         
#   beat_wdata   da(integral)     1     -            
#     [0]        integral         32    'h572ecedb   
#   beat_rdata   da(integral)     0     -            
#   beat_resp    array(hresp_e)   1     -            
#     [0]        hresp_e          1     HRESP_OKAY   
#   beat_index   integral         32    'd0          
# ---------------------------------------------------
# 
# UVM_INFO ./../regmodel/eth_reg2ahb_adapter.sv(46) @ 585000: reporter [eth_reg2ahb_adapter] bus2reg: address = 0x4c, data = 0x572ecedb, kind = UVM_WRITE, status = UVM_IS_OK
# UVM_INFO /home/venus/QuestaSim/uvm-1.2/src/reg/uvm_reg_predictor.svh(218) @ 585000: uvm_test_top.env.ahb_predictor [REG_PREDICT] Observed WRITE transaction to register regmodel.TX_DATA: value='h572ecedb : updated value = 'h572ecedb
# UVM_INFO ./../vip/ahb_vip/ahb_driver.sv(47) @ 585000: uvm_test_top.env.ahb_agt.driver [run_phase] Completed WRITE transaction at addr 0x4c and data: 0x572ecedb
# UVM_INFO ./../regmodel/eth_reg2ahb_adapter.sv(46) @ 585000: reporter [eth_reg2ahb_adapter] bus2reg: address = 0x4c, data = 0x572ecedb, kind = UVM_WRITE, status = UVM_IS_OK
# UVM_INFO @ 585000: reporter [RegModel] Wrote register via map regmodel.ahb_map: regmodel.TX_DATA=0x572ecedb
# UVM_INFO ./../regmodel/eth_reg2ahb_adapter.sv(31) @ 585000: reporter [eth_reg2ahb_adapter] reg2bus: address = 0x4c, data = 0xcdc5ea9c, kind = WRITE
# UVM_INFO ./../vip/ahb_vip/ahb_driver.sv(28) @ 585000: uvm_test_top.env.ahb_agt.driver [run_phase] Start WRITE transaction - ADRRESS: 0x4c
# UVM_INFO ./../vip/ahb_vip/ahb_monitor.sv(135) @ 605000: uvm_test_top.env.ahb_agt.monitor [ahb_monitor] Send trans from monitor to scoreboard: 
# ---------------------------------------------------
# Name           Type             Size  Value        
# ---------------------------------------------------
# trans          ahb_transaction  -     @2030        
#   xact_type    xact_type_enum   1     WRITE        
#   xfer_size    hsize_e          3     HSIZE_WORD   
#   burst_type   hburst_e         3     HBURST_SINGLE
#   addr         integral         10    'h4c         
#   data         integral         32    'hcdc5ea9c   
#   write        integral         1     1            
#   wdata        integral         32    'hcdc5ea9c   
#   rdata        integral         32    'h0          
#   size         hsize_e          3     HSIZE_WORD   
#   burst        hburst_e         3     HBURST_SINGLE
#   prot         integral         4     'h0          
#   lock         integral         1     'h0          
#   resp         hresp_e          1     HRESP_OKAY   
#   num_beats    integral         32    'd1          
#   idle_cycles  integral         32    'd0          
#   addr_q       da(integral)     0     -            
#   wdata_q      da(integral)     1     -            
#     [0]        integral         32    'hcdc5ea9c   
#   rdata_q      da(integral)     0     -            
#   resp_q       array(hresp_e)   1     -            
#     [0]        hresp_e          1     HRESP_OKAY   
#   htrans       htrans_e         2     HTRANS_NONSEQ
#   trans        htrans_e         2     HTRANS_NONSEQ
#   beat_addr    da(integral)     1     -            
#     [0]        integral         10    'h4c         
#   beat_wdata   da(integral)     1     -            
#     [0]        integral         32    'hcdc5ea9c   
#   beat_rdata   da(integral)     0     -            
#   beat_resp    array(hresp_e)   1     -            
#     [0]        hresp_e          1     HRESP_OKAY   
#   beat_index   integral         32    'd0          
# ---------------------------------------------------
# 
# UVM_INFO ./../regmodel/eth_reg2ahb_adapter.sv(46) @ 605000: reporter [eth_reg2ahb_adapter] bus2reg: address = 0x4c, data = 0xcdc5ea9c, kind = UVM_WRITE, status = UVM_IS_OK
# UVM_INFO /home/venus/QuestaSim/uvm-1.2/src/reg/uvm_reg_predictor.svh(218) @ 605000: uvm_test_top.env.ahb_predictor [REG_PREDICT] Observed WRITE transaction to register regmodel.TX_DATA: value='hcdc5ea9c : updated value = 'hcdc5ea9c
# UVM_INFO ./../vip/ahb_vip/ahb_driver.sv(47) @ 605000: uvm_test_top.env.ahb_agt.driver [run_phase] Completed WRITE transaction at addr 0x4c and data: 0xcdc5ea9c
# UVM_INFO ./../regmodel/eth_reg2ahb_adapter.sv(46) @ 605000: reporter [eth_reg2ahb_adapter] bus2reg: address = 0x4c, data = 0xcdc5ea9c, kind = UVM_WRITE, status = UVM_IS_OK
# UVM_INFO @ 605000: reporter [RegModel] Wrote register via map regmodel.ahb_map: regmodel.TX_DATA=0xcdc5ea9c
# UVM_INFO ./../regmodel/eth_reg2ahb_adapter.sv(31) @ 605000: reporter [eth_reg2ahb_adapter] reg2bus: address = 0x4c, data = 0x9f01583f, kind = WRITE
# UVM_INFO ./../vip/ahb_vip/ahb_driver.sv(28) @ 605000: uvm_test_top.env.ahb_agt.driver [run_phase] Start WRITE transaction - ADRRESS: 0x4c
# UVM_INFO ./../vip/ahb_vip/ahb_monitor.sv(135) @ 625000: uvm_test_top.env.ahb_agt.monitor [ahb_monitor] Send trans from monitor to scoreboard: 
# ---------------------------------------------------
# Name           Type             Size  Value        
# ---------------------------------------------------
# trans          ahb_transaction  -     @2072        
#   xact_type    xact_type_enum   1     WRITE        
#   xfer_size    hsize_e          3     HSIZE_WORD   
#   burst_type   hburst_e         3     HBURST_SINGLE
#   addr         integral         10    'h4c         
#   data         integral         32    'h9f01583f   
#   write        integral         1     1            
#   wdata        integral         32    'h9f01583f   
#   rdata        integral         32    'h0          
#   size         hsize_e          3     HSIZE_WORD   
