# vsim -sv_seed 768824 -coverage -coveranalysis -voptargs="+acc" -assertdebug -c testbench -do "coverage save -codeAll -cvg -onexit full_100M_normal_bro_test_768824.ucdb; log -r /*;run -all;" -l full_100M_normal_bro_test_768824.log "+UVM_TESTNAME=full_100M_normal_bro_test" "+UVM_VERBOSITY=UVM_HIGH" 
# Start time: 13:40:27 on Jun 20,2026
# Loading /tmp/venus@nus-fedora_dpi_7520/linux_x86_64_gcc-15/export_tramp.so
# ** Note: (vsim-8009) Loading existing optimized design _opt1
# //  Questa Sim-64
# //  Version 2021.2_1 linux_x86_64 May 15 2021
# //
# //  Copyright 1991-2021 Mentor Graphics Corporation
# //  All Rights Reserved.
# //
# //  QuestaSim and its associated documentation contain trade
# //  secrets and commercial or financial information that are the property of
# //  Mentor Graphics Corporation and are privileged, confidential,
# //  and exempt from disclosure under the Freedom of Information Act,
# //  5 U.S.C. Section 552. Furthermore, this information
# //  is prohibited from disclosure under the Trade Secrets Act,
# //  18 U.S.C. Section 1905.
# //
# ** Note: (vsim-8785) UVM-aware debugging capabilities will be disabled since no compiled "questa_uvm_pkg" can be found.
# This also means that later if you turn on UVM-aware debugging your debug simulations may have
# different random seeds from your non-debug simulations.
# Loading sv_std.std
# Loading work.ahb_if(fast)
# Loading work.phy_if(fast)
# Loading work.uvm_pkg(fast)
# Loading work.ahb_pkg(fast)
# Loading work.phy_pkg(fast)
# Loading work.seq_pkg(fast)
# Loading work.eth_register_pkg(fast)
# Loading work.eth_regmodel_pkg(fast)
# Loading work.env_pkg(fast)
# Loading work.test_pkg(fast)
# Loading work.testbench(fast)
# Loading work.ahb_if(fast__2)
# Loading work.phy_if(fast__2)
# Loading work.eth_top(fast)
# Loading work.eth_ahb_slave(fast)
# Loading work.eth_register(fast)
# Loading work.eth_sync_level(fast)
# Loading work.eth_sync_level(fast__1)
# Loading work.eth_sync_level(fast__2)
# Loading work.eth_sync_level(fast__3)
# Loading work.eth_tx_frame_buffer(fast)
# Loading work.eth_cdc_pulse(fast)
# Loading work.eth_sync_level(fast__4)
# Loading work.eth_tx_buffer_ctrl(fast)
# Loading work.eth_rx_mac(fast)
# Loading work.eth_rx_controller(fast)
# Loading work.eth_rx_cnt(fast)
# Loading work.eth_crc(fast)
# Loading work.eth_rx_addr_check(fast)
# Loading work.eth_rx_buffer_ctrl(fast)
# Loading work.eth_rx_frame_buffer(fast)
# Loading work.eth_sync_level(fast__5)
# Loading work.eth_rx_pause(fast)
# Loading work.eth_tx_pause(fast)
# Loading work.eth_tx_mac(fast)
# Loading work.eth_tx_cnt(fast)
# Loading work.eth_tx_controller(fast)
# Loading work.eth_backoff_random(fast)
# Compiling /tmp/venus@nus-fedora_dpi_7520/linux_x86_64_gcc-15/exportwrapper.c
# Loading /tmp/venus@nus-fedora_dpi_7520/linux_x86_64_gcc-15/vsim_auto_compile.so
# coverage save -codeAll -cvg -onexit full_100M_normal_bro_test_768824.ucdb
#  log -r /*
# run -all
# UVM_INFO /home/venus/QuestaSim/uvm-1.2/src/base/uvm_root.svh(392) @ 0: reporter [UVM/RELNOTES] 
# ----------------------------------------------------------------
# UVM-1.2
# (C) 2007-2014 Mentor Graphics Corporation
# (C) 2007-2014 Cadence Design Systems, Inc.
# (C) 2006-2014 Synopsys, Inc.
# (C) 2011-2013 Cypress Semiconductor Corp.
# (C) 2013-2014 NVIDIA Corporation
# ----------------------------------------------------------------
# 
#   ***********       IMPORTANT RELEASE NOTES         ************
# 
#   You are using a version of the UVM library that has been compiled
#   with `UVM_NO_DEPRECATED undefined.
#   See http://www.eda.org/svdb/view.php?id=3313 for more details.
# 
#   You are using a version of the UVM library that has been compiled
#   with `UVM_OBJECT_DO_NOT_NEED_CONSTRUCTOR undefined.
#   See http://www.eda.org/svdb/view.php?id=3770 for more details.
# 
#       (Specify +UVM_NO_RELNOTES to turn off this notice)
# 
# UVM_INFO /home/venus/QuestaSim/uvm-1.2/src/base/uvm_root.svh(453) @ 0: reporter [NO_DPI_TSTNAME] UVM_NO_DPI defined--getting UVM_TESTNAME directly, without DPI
# UVM_INFO @ 0: reporter [RNTST] Running test full_100M_normal_bro_test...
# UVM_INFO ./../testcases/eth_base_test.sv(220) @ 0: uvm_test_top [build_phase] Entered...
# UVM_INFO ./../testcases/eth_base_test.sv(237) @ 0: uvm_test_top [build_phase] Exitting...
# UVM_INFO ./../tb/eth_environment.sv(24) @ 0: uvm_test_top.env [build_phase] Entered...
# UVM_INFO ./../tb/eth_environment.sv(52) @ 0: uvm_test_top.env [build_phase] Exitting...
# UVM_INFO ./../vip/ahb_vip/ahb_agent.sv(19) @ 0: uvm_test_top.env.ahb_agt [ahb_agent] Active agent is configued
# UVM_INFO ./../vip/phy_vip/phy_agent.sv(25) @ 0: uvm_test_top.env.phy_agt [phy_agent] Active agent is configured
# UVM_INFO ./../tb/eth_environment.sv(57) @ 0: uvm_test_top.env [connect_phase] Entered...
# UVM_INFO ./../tb/eth_environment.sv(70) @ 0: uvm_test_top.env [connect_phase] Exiting...
# UVM_INFO /home/venus/QuestaSim/uvm-1.2/src/base/uvm_root.svh(579) @ 0: reporter [UVMTOP] UVM testbench topology:
# ------------------------------------------------------------------------------
# Name                         Type                                  Size  Value
# ------------------------------------------------------------------------------
# uvm_test_top                 full_100M_normal_bro_test             -     @347 
#   env                        eth_environment                       -     @364 
#     ahb_agt                  ahb_agent                             -     @390 
#       driver                 ahb_driver                            -     @552 
#         rsp_port             uvm_analysis_port                     -     @571 
#         seq_item_port        uvm_seq_item_pull_port                -     @561 
#       monitor                ahb_monitor                           -     @718 
#         ahb_observe_port     uvm_analysis_port                     -     @731 
#       sequencer              ahb_sequencer                         -     @581 
#         rsp_export           uvm_analysis_export                   -     @590 
#         seq_item_export      uvm_seq_item_pull_imp                 -     @708 
#         arbitration_queue    array                                 0     -    
#         lock_queue           array                                 0     -    
#         num_last_reqs        integral                              32    'd1  
#         num_last_rsps        integral                              32    'd1  
#     ahb_predictor            uvm_reg_predictor #(ahb_transaction)  -     @509 
#       bus_in                 uvm_analysis_imp                      -     @518 
#       reg_ap                 uvm_analysis_port                     -     @528 
#     phy_agt                  phy_agent                             -     @399 
#       driver                 phy_driver                            -     @889 
#         rsp_port             uvm_analysis_port                     -     @908 
#         seq_item_port        uvm_seq_item_pull_port                -     @898 
#       monitor                phy_monitor                           -     @922 
#         phy_observe_port_rx  uvm_analysis_port                     -     @941 
#         phy_observe_port_tx  uvm_analysis_port                     -     @931 
#       sequencer              phy_sequencer                         -     @752 
#         rsp_export           uvm_analysis_export                   -     @761 
#         seq_item_export      uvm_seq_item_pull_imp                 -     @879 
#         arbitration_queue    array                                 0     -    
#         lock_queue           array                                 0     -    
#         num_last_reqs        integral                              32    'd1  
#         num_last_rsps        integral                              32    'd1  
#     sb                       eth_scoreboard                        -     @408 
#       ahb_export             uvm_analysis_imp_ahb                  -     @983 
#       phy_rx_export          uvm_analysis_imp_phy_rx               -     @973 
#       phy_tx_export          uvm_analysis_imp_phy_tx               -     @963 
# ------------------------------------------------------------------------------
# 
# UVM_INFO /home/venus/QuestaSim/uvm-1.2/src/base/uvm_traversal.svh(279) @ 0: reporter [UVM/COMP/NAMECHECK] This implementation of the component name checks requires DPI to be enabled
# UVM_INFO ./../testcases/eth_base_test.sv(137) @ 0: uvm_test_top [full_100M_normal_bro_test] burst_write_reg_range: start=0x0 end=0x10 beats=5 auto_fixed_burst=1
# UVM_INFO ./../vip/phy_vip/phy_driver.sv(62) @ 0: uvm_test_top.env.phy_agt.driver [run_phase] ENTERED...
# UVM_INFO ./../sequences/eth_ahb_burst_write_seq.sv(99) @ 105000: uvm_test_top.env.ahb_agt.sequencer@@burst_seq [eth_ahb_burst_write_seq] AHB burst write chunk: addr=0x0 beats=4 burst=HBURST_INCR4
# UVM_INFO ./../vip/ahb_vip/ahb_driver.sv(28) @ 105000: uvm_test_top.env.ahb_agt.driver [run_phase] Start WRITE transaction - ADRRESS: 0x0
# UVM_INFO ./../vip/ahb_vip/ahb_monitor.sv(135) @ 125000: uvm_test_top.env.ahb_agt.monitor [ahb_monitor] Send trans from monitor to scoreboard: 
# ---------------------------------------------------
# Name           Type             Size  Value        
# ---------------------------------------------------
# trans          ahb_transaction  -     @1079        
#   xact_type    xact_type_enum   1     WRITE        
#   xfer_size    hsize_e          3     HSIZE_WORD   
#   burst_type   hburst_e         3     HBURST_INCR4 
#   addr         integral         10    'h0          
#   data         integral         32    'h33445566   
#   write        integral         1     1            
#   wdata        integral         32    'h33445566   
#   rdata        integral         32    'h0          
#   size         hsize_e          3     HSIZE_WORD   
#   burst        hburst_e         3     HBURST_INCR4 
#   prot         integral         4     'h0          
#   lock         integral         1     'h0          
#   resp         hresp_e          1     HRESP_OKAY   
#   num_beats    integral         32    'd4          
#   idle_cycles  integral         32    'd0          
#   addr_q       da(integral)     0     -            
#   wdata_q      da(integral)     1     -            
#     [0]        integral         32    'h33445566   
#   rdata_q      da(integral)     0     -            
#   resp_q       array(hresp_e)   1     -            
#     [0]        hresp_e          1     HRESP_OKAY   
#   htrans       htrans_e         2     HTRANS_NONSEQ
#   trans        htrans_e         2     HTRANS_NONSEQ
#   beat_addr    da(integral)     1     -            
#     [0]        integral         10    'h0          
#   beat_wdata   da(integral)     1     -            
#     [0]        integral         32    'h33445566   
#   beat_rdata   da(integral)     0     -            
#   beat_resp    array(hresp_e)   1     -            
#     [0]        hresp_e          1     HRESP_OKAY   
#   beat_index   integral         32    'd0          
# ---------------------------------------------------
# 
# UVM_INFO ./../regmodel/eth_reg2ahb_adapter.sv(46) @ 125000: reporter [eth_reg2ahb_adapter] bus2reg: address = 0x0, data = 0x33445566, kind = UVM_WRITE, status = UVM_IS_OK
# UVM_INFO /home/venus/QuestaSim/uvm-1.2/src/reg/uvm_reg_predictor.svh(218) @ 125000: uvm_test_top.env.ahb_predictor [REG_PREDICT] Observed WRITE transaction to register regmodel.MAC_SA_LOW: value='h33445566 : updated value = 'h33445566
# UVM_INFO ./../vip/ahb_vip/ahb_monitor.sv(135) @ 135000: uvm_test_top.env.ahb_agt.monitor [ahb_monitor] Send trans from monitor to scoreboard: 
# --------------------------------------------------
# Name           Type             Size  Value       
# --------------------------------------------------
# trans          ahb_transaction  -     @1093       
#   xact_type    xact_type_enum   1     WRITE       
#   xfer_size    hsize_e          3     HSIZE_WORD  
#   burst_type   hburst_e         3     HBURST_INCR4
#   addr         integral         10    'h4         
#   data         integral         32    'h1122      
#   write        integral         1     1           
#   wdata        integral         32    'h1122      
#   rdata        integral         32    'h0         
#   size         hsize_e          3     HSIZE_WORD  
#   burst        hburst_e         3     HBURST_INCR4
#   prot         integral         4     'h0         
#   lock         integral         1     'h0         
#   resp         hresp_e          1     HRESP_OKAY  
#   num_beats    integral         32    'd4         
#   idle_cycles  integral         32    'd0         
#   addr_q       da(integral)     0     -           
#   wdata_q      da(integral)     1     -           
#     [0]        integral         32    'h1122      
#   rdata_q      da(integral)     0     -           
#   resp_q       array(hresp_e)   1     -           
#     [0]        hresp_e          1     HRESP_OKAY  
#   htrans       htrans_e         2     HTRANS_SEQ  
#   trans        htrans_e         2     HTRANS_SEQ  
#   beat_addr    da(integral)     1     -           
#     [0]        integral         10    'h4         
#   beat_wdata   da(integral)     1     -           
#     [0]        integral         32    'h1122      
#   beat_rdata   da(integral)     0     -           
#   beat_resp    array(hresp_e)   1     -           
#     [0]        hresp_e          1     HRESP_OKAY  
#   beat_index   integral         32    'd1         
# --------------------------------------------------
# 
# UVM_INFO ./../regmodel/eth_reg2ahb_adapter.sv(46) @ 135000: reporter [eth_reg2ahb_adapter] bus2reg: address = 0x4, data = 0x1122, kind = UVM_WRITE, status = UVM_IS_OK
# UVM_INFO /home/venus/QuestaSim/uvm-1.2/src/reg/uvm_reg_predictor.svh(218) @ 135000: uvm_test_top.env.ahb_predictor [REG_PREDICT] Observed WRITE transaction to register regmodel.MAC_SA_HIGH: value='h1122 : updated value = 'h1122
# UVM_INFO ./../vip/ahb_vip/ahb_monitor.sv(135) @ 145000: uvm_test_top.env.ahb_agt.monitor [ahb_monitor] Send trans from monitor to scoreboard: 
# --------------------------------------------------
# Name           Type             Size  Value       
# --------------------------------------------------
# trans          ahb_transaction  -     @1107       
#   xact_type    xact_type_enum   1     WRITE       
#   xfer_size    hsize_e          3     HSIZE_WORD  
#   burst_type   hburst_e         3     HBURST_INCR4
#   addr         integral         10    'h8         
#   data         integral         32    'h3         
#   write        integral         1     1           
#   wdata        integral         32    'h3         
#   rdata        integral         32    'h0         
#   size         hsize_e          3     HSIZE_WORD  
#   burst        hburst_e         3     HBURST_INCR4
#   prot         integral         4     'h0         
#   lock         integral         1     'h0         
#   resp         hresp_e          1     HRESP_OKAY  
#   num_beats    integral         32    'd4         
#   idle_cycles  integral         32    'd0         
#   addr_q       da(integral)     0     -           
#   wdata_q      da(integral)     1     -           
#     [0]        integral         32    'h3         
#   rdata_q      da(integral)     0     -           
#   resp_q       array(hresp_e)   1     -           
#     [0]        hresp_e          1     HRESP_OKAY  
#   htrans       htrans_e         2     HTRANS_SEQ  
#   trans        htrans_e         2     HTRANS_SEQ  
#   beat_addr    da(integral)     1     -           
#     [0]        integral         10    'h8         
#   beat_wdata   da(integral)     1     -           
#     [0]        integral         32    'h3         
#   beat_rdata   da(integral)     0     -           
#   beat_resp    array(hresp_e)   1     -           
#     [0]        hresp_e          1     HRESP_OKAY  
#   beat_index   integral         32    'd2         
# --------------------------------------------------
# 
# UVM_INFO ./../regmodel/eth_reg2ahb_adapter.sv(46) @ 145000: reporter [eth_reg2ahb_adapter] bus2reg: address = 0x8, data = 0x3, kind = UVM_WRITE, status = UVM_IS_OK
# UVM_INFO /home/venus/QuestaSim/uvm-1.2/src/reg/uvm_reg_predictor.svh(218) @ 145000: uvm_test_top.env.ahb_predictor [REG_PREDICT] Observed WRITE transaction to register regmodel.PAUSE_CTRL: value='h3 : updated value = 'h3
# UVM_INFO ./../vip/ahb_vip/ahb_driver.sv(47) @ 155000: uvm_test_top.env.ahb_agt.driver [run_phase] Completed WRITE transaction at addr 0x0 and data: 0x33445566
# UVM_INFO ./../vip/ahb_vip/ahb_monitor.sv(135) @ 155000: uvm_test_top.env.ahb_agt.monitor [ahb_monitor] Send trans from monitor to scoreboard: 
# --------------------------------------------------
# Name           Type             Size  Value       
# --------------------------------------------------
# trans          ahb_transaction  -     @1127       
#   xact_type    xact_type_enum   1     WRITE       
#   xfer_size    hsize_e          3     HSIZE_WORD  
#   burst_type   hburst_e         3     HBURST_INCR4
#   addr         integral         10    'hc         
#   data         integral         32    'h4         
#   write        integral         1     1           
#   wdata        integral         32    'h4         
#   rdata        integral         32    'h0         
#   size         hsize_e          3     HSIZE_WORD  
#   burst        hburst_e         3     HBURST_INCR4
#   prot         integral         4     'h0         
#   lock         integral         1     'h0         
#   resp         hresp_e          1     HRESP_OKAY  
#   num_beats    integral         32    'd4         
#   idle_cycles  integral         32    'd0         
#   addr_q       da(integral)     0     -           
#   wdata_q      da(integral)     1     -           
#     [0]        integral         32    'h4         
#   rdata_q      da(integral)     0     -           
#   resp_q       array(hresp_e)   1     -           
#     [0]        hresp_e          1     HRESP_OKAY  
#   htrans       htrans_e         2     HTRANS_SEQ  
#   trans        htrans_e         2     HTRANS_SEQ  
#   beat_addr    da(integral)     1     -           
#     [0]        integral         10    'hc         
#   beat_wdata   da(integral)     1     -           
#     [0]        integral         32    'h4         
#   beat_rdata   da(integral)     0     -           
#   beat_resp    array(hresp_e)   1     -           
#     [0]        hresp_e          1     HRESP_OKAY  
#   beat_index   integral         32    'd3         
# --------------------------------------------------
# 
# UVM_INFO ./../regmodel/eth_reg2ahb_adapter.sv(46) @ 155000: reporter [eth_reg2ahb_adapter] bus2reg: address = 0xc, data = 0x4, kind = UVM_WRITE, status = UVM_IS_OK
# UVM_INFO /home/venus/QuestaSim/uvm-1.2/src/reg/uvm_reg_predictor.svh(218) @ 155000: uvm_test_top.env.ahb_predictor [REG_PREDICT] Observed WRITE transaction to register regmodel.IER: value='h4 : updated value = 'h4
# UVM_INFO ./../sequences/eth_ahb_burst_write_seq.sv(99) @ 155000: uvm_test_top.env.ahb_agt.sequencer@@burst_seq [eth_ahb_burst_write_seq] AHB burst write chunk: addr=0x10 beats=1 burst=HBURST_SINGLE
# UVM_INFO ./../vip/ahb_vip/ahb_driver.sv(28) @ 155000: uvm_test_top.env.ahb_agt.driver [run_phase] Start WRITE transaction - ADRRESS: 0x10
# UVM_INFO ./../vip/ahb_vip/ahb_monitor.sv(135) @ 175000: uvm_test_top.env.ahb_agt.monitor [ahb_monitor] Send trans from monitor to scoreboard: 
# ---------------------------------------------------
# Name           Type             Size  Value        
# ---------------------------------------------------
# trans          ahb_transaction  -     @1150        
#   xact_type    xact_type_enum   1     WRITE        
#   xfer_size    hsize_e          3     HSIZE_WORD   
#   burst_type   hburst_e         3     HBURST_SINGLE
#   addr         integral         10    'h10         
#   data         integral         32    'h27         
#   write        integral         1     1            
#   wdata        integral         32    'h27         
#   rdata        integral         32    'h0          
#   size         hsize_e          3     HSIZE_WORD   
#   burst        hburst_e         3     HBURST_SINGLE
#   prot         integral         4     'h0          
#   lock         integral         1     'h0          
#   resp         hresp_e          1     HRESP_OKAY   
#   num_beats    integral         32    'd1          
#   idle_cycles  integral         32    'd0          
#   addr_q       da(integral)     0     -            
#   wdata_q      da(integral)     1     -            
#     [0]        integral         32    'h27         
#   rdata_q      da(integral)     0     -            
#   resp_q       array(hresp_e)   1     -            
#     [0]        hresp_e          1     HRESP_OKAY   
#   htrans       htrans_e         2     HTRANS_NONSEQ
#   trans        htrans_e         2     HTRANS_NONSEQ
#   beat_addr    da(integral)     1     -            
#     [0]        integral         10    'h10         
#   beat_wdata   da(integral)     1     -            
#     [0]        integral         32    'h27         
#   beat_rdata   da(integral)     0     -            
#   beat_resp    array(hresp_e)   1     -            
#     [0]        hresp_e          1     HRESP_OKAY   
#   beat_index   integral         32    'd0          
# ---------------------------------------------------
# 
# UVM_INFO ./../regmodel/eth_reg2ahb_adapter.sv(46) @ 175000: reporter [eth_reg2ahb_adapter] bus2reg: address = 0x10, data = 0x27, kind = UVM_WRITE, status = UVM_IS_OK
# UVM_INFO /home/venus/QuestaSim/uvm-1.2/src/reg/uvm_reg_predictor.svh(218) @ 175000: uvm_test_top.env.ahb_predictor [REG_PREDICT] Observed WRITE transaction to register regmodel.MAC_CTRL: value='h27 : updated value = 'h27
# UVM_INFO ./../vip/ahb_vip/ahb_driver.sv(47) @ 175000: uvm_test_top.env.ahb_agt.driver [run_phase] Completed WRITE transaction at addr 0x10 and data: 0x27
# UVM_INFO ./../testcases/eth_base_test.sv(149) @ 175000: uvm_test_top [full_100M_normal_bro_test] burst_write_reg_range: completed
# UVM_INFO ./../testcases/eth_base_test.sv(137) @ 175000: uvm_test_top [full_100M_normal_bro_test] burst_write_reg_range: start=0x20 end=0x24 beats=2 auto_fixed_burst=1
# UVM_INFO ./../sequences/eth_ahb_burst_write_seq.sv(99) @ 175000: uvm_test_top.env.ahb_agt.sequencer@@burst_seq [eth_ahb_burst_write_seq] AHB burst write chunk: addr=0x20 beats=2 burst=HBURST_INCR
# UVM_INFO ./../vip/ahb_vip/ahb_driver.sv(28) @ 175000: uvm_test_top.env.ahb_agt.driver [run_phase] Start WRITE transaction - ADRRESS: 0x20
# UVM_INFO ./../vip/ahb_vip/ahb_monitor.sv(135) @ 195000: uvm_test_top.env.ahb_agt.monitor [ahb_monitor] Send trans from monitor to scoreboard: 
# ---------------------------------------------------
# Name           Type             Size  Value        
# ---------------------------------------------------
# trans          ahb_transaction  -     @1190        
#   xact_type    xact_type_enum   1     WRITE        
#   xfer_size    hsize_e          3     HSIZE_WORD   
#   burst_type   hburst_e         3     HBURST_INCR  
#   addr         integral         10    'h20         
#   data         integral         32    'h0          
#   write        integral         1     1            
#   wdata        integral         32    'h0          
#   rdata        integral         32    'h0          
#   size         hsize_e          3     HSIZE_WORD   
#   burst        hburst_e         3     HBURST_INCR  
#   prot         integral         4     'h0          
#   lock         integral         1     'h0          
#   resp         hresp_e          1     HRESP_OKAY   
#   num_beats    integral         32    'd0          
#   idle_cycles  integral         32    'd0          
#   addr_q       da(integral)     0     -            
#   wdata_q      da(integral)     1     -            
#     [0]        integral         32    'h0          
#   rdata_q      da(integral)     0     -            
#   resp_q       array(hresp_e)   1     -            
#     [0]        hresp_e          1     HRESP_OKAY   
#   htrans       htrans_e         2     HTRANS_NONSEQ
#   trans        htrans_e         2     HTRANS_NONSEQ
#   beat_addr    da(integral)     1     -            
#     [0]        integral         10    'h20         
#   beat_wdata   da(integral)     1     -            
#     [0]        integral         32    'h0          
#   beat_rdata   da(integral)     0     -            
#   beat_resp    array(hresp_e)   1     -            
#     [0]        hresp_e          1     HRESP_OKAY   
#   beat_index   integral         32    'd0          
# ---------------------------------------------------
# 
# UVM_INFO ./../regmodel/eth_reg2ahb_adapter.sv(46) @ 195000: reporter [eth_reg2ahb_adapter] bus2reg: address = 0x20, data = 0x0, kind = UVM_WRITE, status = UVM_IS_OK
# UVM_INFO /home/venus/QuestaSim/uvm-1.2/src/reg/uvm_reg_predictor.svh(218) @ 195000: uvm_test_top.env.ahb_predictor [REG_PREDICT] Observed WRITE transaction to register regmodel.HASH_0: value='h0 : updated value = 'h0
# UVM_INFO ./../vip/ahb_vip/ahb_driver.sv(47) @ 205000: uvm_test_top.env.ahb_agt.driver [run_phase] Completed WRITE transaction at addr 0x20 and data: 0x0
# UVM_INFO ./../vip/ahb_vip/ahb_monitor.sv(135) @ 205000: uvm_test_top.env.ahb_agt.monitor [ahb_monitor] Send trans from monitor to scoreboard: 
# -------------------------------------------------
# Name           Type             Size  Value      
# -------------------------------------------------
# trans          ahb_transaction  -     @1210      
#   xact_type    xact_type_enum   1     WRITE      
#   xfer_size    hsize_e          3     HSIZE_WORD 
#   burst_type   hburst_e         3     HBURST_INCR
#   addr         integral         10    'h24       
#   data         integral         32    'h0        
#   write        integral         1     1          
#   wdata        integral         32    'h0        
#   rdata        integral         32    'h0        
#   size         hsize_e          3     HSIZE_WORD 
#   burst        hburst_e         3     HBURST_INCR
#   prot         integral         4     'h0        
#   lock         integral         1     'h0        
#   resp         hresp_e          1     HRESP_OKAY 
#   num_beats    integral         32    'd0        
#   idle_cycles  integral         32    'd0        
#   addr_q       da(integral)     0     -          
#   wdata_q      da(integral)     1     -          
#     [0]        integral         32    'h0        
#   rdata_q      da(integral)     0     -          
#   resp_q       array(hresp_e)   1     -          
#     [0]        hresp_e          1     HRESP_OKAY 
#   htrans       htrans_e         2     HTRANS_SEQ 
#   trans        htrans_e         2     HTRANS_SEQ 
#   beat_addr    da(integral)     1     -          
#     [0]        integral         10    'h24       
#   beat_wdata   da(integral)     1     -          
#     [0]        integral         32    'h0        
#   beat_rdata   da(integral)     0     -          
#   beat_resp    array(hresp_e)   1     -          
#     [0]        hresp_e          1     HRESP_OKAY 
#   beat_index   integral         32    'd1        
# -------------------------------------------------
# 
# UVM_INFO ./../regmodel/eth_reg2ahb_adapter.sv(46) @ 205000: reporter [eth_reg2ahb_adapter] bus2reg: address = 0x24, data = 0x0, kind = UVM_WRITE, status = UVM_IS_OK
# UVM_INFO /home/venus/QuestaSim/uvm-1.2/src/reg/uvm_reg_predictor.svh(218) @ 205000: uvm_test_top.env.ahb_predictor [REG_PREDICT] Observed WRITE transaction to register regmodel.HASH_1: value='h0 : updated value = 'h0
# UVM_INFO ./../testcases/eth_base_test.sv(149) @ 205000: uvm_test_top [full_100M_normal_bro_test] burst_write_reg_range: completed
# UVM_INFO ./../testcases/eth_base_test.sv(137) @ 205000: uvm_test_top [full_100M_normal_bro_test] burst_write_reg_range: start=0x40 end=0x48 beats=3 auto_fixed_burst=1
# UVM_INFO ./../sequences/eth_ahb_burst_write_seq.sv(99) @ 205000: uvm_test_top.env.ahb_agt.sequencer@@burst_seq [eth_ahb_burst_write_seq] AHB burst write chunk: addr=0x40 beats=3 burst=HBURST_INCR
# UVM_INFO ./../vip/ahb_vip/ahb_driver.sv(28) @ 205000: uvm_test_top.env.ahb_agt.driver [run_phase] Start WRITE transaction - ADRRESS: 0x40
# UVM_INFO ./../vip/ahb_vip/ahb_monitor.sv(135) @ 225000: uvm_test_top.env.ahb_agt.monitor [ahb_monitor] Send trans from monitor to scoreboard: 
# ---------------------------------------------------
# Name           Type             Size  Value        
# ---------------------------------------------------
# trans          ahb_transaction  -     @1244        
#   xact_type    xact_type_enum   1     WRITE        
#   xfer_size    hsize_e          3     HSIZE_WORD   
#   burst_type   hburst_e         3     HBURST_INCR  
#   addr         integral         10    'h40         
#   data         integral         32    'hccddeeff   
#   write        integral         1     1            
#   wdata        integral         32    'hccddeeff   
#   rdata        integral         32    'h0          
#   size         hsize_e          3     HSIZE_WORD   
#   burst        hburst_e         3     HBURST_INCR  
#   prot         integral         4     'h0          
#   lock         integral         1     'h0          
#   resp         hresp_e          1     HRESP_OKAY   
#   num_beats    integral         32    'd0          
#   idle_cycles  integral         32    'd0          
#   addr_q       da(integral)     0     -            
#   wdata_q      da(integral)     1     -            
#     [0]        integral         32    'hccddeeff   
#   rdata_q      da(integral)     0     -            
#   resp_q       array(hresp_e)   1     -            
#     [0]        hresp_e          1     HRESP_OKAY   
#   htrans       htrans_e         2     HTRANS_NONSEQ
#   trans        htrans_e         2     HTRANS_NONSEQ
#   beat_addr    da(integral)     1     -            
#     [0]        integral         10    'h40         
#   beat_wdata   da(integral)     1     -            
#     [0]        integral         32    'hccddeeff   
#   beat_rdata   da(integral)     0     -            
#   beat_resp    array(hresp_e)   1     -            
#     [0]        hresp_e          1     HRESP_OKAY   
#   beat_index   integral         32    'd0          
# ---------------------------------------------------
# 
# UVM_INFO ./../regmodel/eth_reg2ahb_adapter.sv(46) @ 225000: reporter [eth_reg2ahb_adapter] bus2reg: address = 0x40, data = 0xccddeeff, kind = UVM_WRITE, status = UVM_IS_OK
# UVM_INFO /home/venus/QuestaSim/uvm-1.2/src/reg/uvm_reg_predictor.svh(218) @ 225000: uvm_test_top.env.ahb_predictor [REG_PREDICT] Observed WRITE transaction to register regmodel.TX_DA_LOW: value='hccddeeff : updated value = 'hccddeeff
# UVM_INFO ./../vip/ahb_vip/ahb_monitor.sv(135) @ 235000: uvm_test_top.env.ahb_agt.monitor [ahb_monitor] Send trans from monitor to scoreboard: 
# -------------------------------------------------
# Name           Type             Size  Value      
# -------------------------------------------------
# trans          ahb_transaction  -     @1258      
#   xact_type    xact_type_enum   1     WRITE      
#   xfer_size    hsize_e          3     HSIZE_WORD 
#   burst_type   hburst_e         3     HBURST_INCR
#   addr         integral         10    'h44       
#   data         integral         32    'haabb     
#   write        integral         1     1          
#   wdata        integral         32    'haabb     
#   rdata        integral         32    'h0        
#   size         hsize_e          3     HSIZE_WORD 
#   burst        hburst_e         3     HBURST_INCR
#   prot         integral         4     'h0        
#   lock         integral         1     'h0        
#   resp         hresp_e          1     HRESP_OKAY 
#   num_beats    integral         32    'd0        
#   idle_cycles  integral         32    'd0        
#   addr_q       da(integral)     0     -          
#   wdata_q      da(integral)     1     -          
#     [0]        integral         32    'haabb     
#   rdata_q      da(integral)     0     -          
#   resp_q       array(hresp_e)   1     -          
#     [0]        hresp_e          1     HRESP_OKAY 
#   htrans       htrans_e         2     HTRANS_SEQ 
#   trans        htrans_e         2     HTRANS_SEQ 
#   beat_addr    da(integral)     1     -          
#     [0]        integral         10    'h44       
#   beat_wdata   da(integral)     1     -          
#     [0]        integral         32    'haabb     
#   beat_rdata   da(integral)     0     -          
#   beat_resp    array(hresp_e)   1     -          
#     [0]        hresp_e          1     HRESP_OKAY 
#   beat_index   integral         32    'd1        
# -------------------------------------------------
# 
# UVM_INFO ./../regmodel/eth_reg2ahb_adapter.sv(46) @ 235000: reporter [eth_reg2ahb_adapter] bus2reg: address = 0x44, data = 0xaabb, kind = UVM_WRITE, status = UVM_IS_OK
# UVM_INFO /home/venus/QuestaSim/uvm-1.2/src/reg/uvm_reg_predictor.svh(218) @ 235000: uvm_test_top.env.ahb_predictor [REG_PREDICT] Observed WRITE transaction to register regmodel.TX_DA_HIGH: value='haabb : updated value = 'haabb
# UVM_INFO ./../vip/ahb_vip/ahb_monitor.sv(135) @ 245000: uvm_test_top.env.ahb_agt.monitor [ahb_monitor] Send trans from monitor to scoreboard: 
# -------------------------------------------------
# Name           Type             Size  Value      
# -------------------------------------------------
# trans          ahb_transaction  -     @1272      
#   xact_type    xact_type_enum   1     WRITE      
#   xfer_size    hsize_e          3     HSIZE_WORD 
#   burst_type   hburst_e         3     HBURST_INCR
#   addr         integral         10    'h48       
#   data         integral         32    'h14f      
#   write        integral         1     1          
#   wdata        integral         32    'h14f      
#   rdata        integral         32    'h0        
#   size         hsize_e          3     HSIZE_WORD 
#   burst        hburst_e         3     HBURST_INCR
#   prot         integral         4     'h0        
#   lock         integral         1     'h0        
#   resp         hresp_e          1     HRESP_OKAY 
#   num_beats    integral         32    'd0        
#   idle_cycles  integral         32    'd0        
#   addr_q       da(integral)     0     -          
#   wdata_q      da(integral)     1     -          
#     [0]        integral         32    'h14f      
#   rdata_q      da(integral)     0     -          
#   resp_q       array(hresp_e)   1     -          
#     [0]        hresp_e          1     HRESP_OKAY 
#   htrans       htrans_e         2     HTRANS_SEQ 
#   trans        htrans_e         2     HTRANS_SEQ 
#   beat_addr    da(integral)     1     -          
#     [0]        integral         10    'h48       
#   beat_wdata   da(integral)     1     -          
#     [0]        integral         32    'h14f      
#   beat_rdata   da(integral)     0     -          
#   beat_resp    array(hresp_e)   1     -          
#     [0]        hresp_e          1     HRESP_OKAY 
#   beat_index   integral         32    'd2        
# -------------------------------------------------
# 
# UVM_INFO ./../regmodel/eth_reg2ahb_adapter.sv(46) @ 245000: reporter [eth_reg2ahb_adapter] bus2reg: address = 0x48, data = 0x14f, kind = UVM_WRITE, status = UVM_IS_OK
# UVM_INFO /home/venus/QuestaSim/uvm-1.2/src/reg/uvm_reg_predictor.svh(218) @ 245000: uvm_test_top.env.ahb_predictor [REG_PREDICT] Observed WRITE transaction to register regmodel.TX_LEN: value='h14f : updated value = 'h14f
# UVM_INFO ./../vip/ahb_vip/ahb_driver.sv(47) @ 245000: uvm_test_top.env.ahb_agt.driver [run_phase] Completed WRITE transaction at addr 0x40 and data: 0xccddeeff
# UVM_INFO ./../testcases/eth_base_test.sv(149) @ 245000: uvm_test_top [full_100M_normal_bro_test] burst_write_reg_range: completed
# UVM_INFO ./../testcases/eth_base_test.sv(182) @ 245000: uvm_test_top [full_100M_normal_bro_test] random_payload: byte_len=335 num_words=84
#   payload[0] = 32'h3ae5ca23
#   payload[1] = 32'hf97b2d5b
#   payload[2] = 32'h415652f9
#   payload[3] = 32'hcac56821
#   payload[4] = 32'h282ae4f8
#   payload[5] = 32'h263ad4b0
#   payload[6] = 32'h544dbcb7
#   payload[7] = 32'h5687928e
#   payload[8] = 32'h6e91508c
#   payload[9] = 32'h63215899
#   payload[10] = 32'h3f47d4a9
#   payload[11] = 32'hd56e2e4e
#   payload[12] = 32'h34c24aff
#   payload[13] = 32'hb3460e26
#   payload[14] = 32'h252fa0ba
#   payload[15] = 32'hfaaad2ec
#   payload[16] = 32'hd719f29c
#   payload[17] = 32'hbf861501
#   payload[18] = 32'hfbcdfdbb
#   payload[19] = 32'h7d8b2907
#   payload[20] = 32'h942fe179
#   payload[21] = 32'h8092ce9f
#   payload[22] = 32'hb63a1319
#   payload[23] = 32'h2be17dd6
#   payload[24] = 32'h6eb00885
#   payload[25] = 32'hb5bd0783
#   payload[26] = 32'h6e55474e
#   payload[27] = 32'h1533e51d
#   payload[28] = 32'h07df24b8
#   payload[29] = 32'h905d6c8d
#   payload[30] = 32'h64e88fba
#   payload[31] = 32'h3578d4e0
#   payload[32] = 32'hdfd1f75d
#   payload[33] = 32'h743d6729
#   payload[34] = 32'h596e4259
#   payload[35] = 32'heced6837
#   payload[36] = 32'hbe5d603c
#   payload[37] = 32'hd93784dd
#   payload[38] = 32'h5821d1d7
#   payload[39] = 32'h402a7769
#   payload[40] = 32'h778b3f77
#   payload[41] = 32'ha0fcbaf5
#   payload[42] = 32'h0d8b9898
#   payload[43] = 32'h31596998
#   payload[44] = 32'h0887af76
#   payload[45] = 32'hdb36a1e0
#   payload[46] = 32'h951b2bda
#   payload[47] = 32'h9ad9298c
#   payload[48] = 32'h08e9a387
#   payload[49] = 32'ha2fe9490
#   payload[50] = 32'hcd7794c6
#   payload[51] = 32'hea599599
#   payload[52] = 32'hd0af547d
#   payload[53] = 32'h9898d48f
#   payload[54] = 32'hb5c981e3
#   payload[55] = 32'ha997ca17
#   payload[56] = 32'h0d3c7525
#   payload[57] = 32'h319ccfda
#   payload[58] = 32'h487b6a4b
#   payload[59] = 32'h560ee924
#   payload[60] = 32'h2b19b72f
#   payload[61] = 32'h213f7f9c
#   payload[62] = 32'had7891a9
#   payload[63] = 32'h05454e39
#   payload[64] = 32'h3f059370
#   payload[65] = 32'h69db114f
#   payload[66] = 32'h87142379
#   payload[67] = 32'h05f382f2
#   payload[68] = 32'h793b59af
#   payload[69] = 32'h49c0d7d4
#   payload[70] = 32'h1fa52727
#   payload[71] = 32'h42f0f1a9
#   payload[72] = 32'hfe33acdc
#   payload[73] = 32'hff5664c2
#   payload[74] = 32'hcf5798e3
#   payload[75] = 32'hc5388162
#   payload[76] = 32'h1fdcc955
#   payload[77] = 32'hbd31c00c
#   payload[78] = 32'h2fc37a97
#   payload[79] = 32'h3d4f60fe
#   payload[80] = 32'h10ab9636
#   payload[81] = 32'ha504e0ce
#   payload[82] = 32'h43d105a4
#   payload[83] = 32'h00182b63
# UVM_INFO ./../regmodel/eth_reg2ahb_adapter.sv(31) @ 245000: reporter [eth_reg2ahb_adapter] reg2bus: address = 0x4c, data = 0x3ae5ca23, kind = WRITE
# UVM_INFO ./../vip/ahb_vip/ahb_driver.sv(28) @ 245000: uvm_test_top.env.ahb_agt.driver [run_phase] Start WRITE transaction - ADRRESS: 0x4c
# UVM_INFO ./../vip/ahb_vip/ahb_monitor.sv(135) @ 265000: uvm_test_top.env.ahb_agt.monitor [ahb_monitor] Send trans from monitor to scoreboard: 
# ---------------------------------------------------
# Name           Type             Size  Value        
# ---------------------------------------------------
# trans          ahb_transaction  -     @1316        
#   xact_type    xact_type_enum   1     WRITE        
#   xfer_size    hsize_e          3     HSIZE_WORD   
#   burst_type   hburst_e         3     HBURST_SINGLE
#   addr         integral         10    'h4c         
#   data         integral         32    'h3ae5ca23   
#   write        integral         1     1            
#   wdata        integral         32    'h3ae5ca23   
#   rdata        integral         32    'h0          
#   size         hsize_e          3     HSIZE_WORD   
#   burst        hburst_e         3     HBURST_SINGLE
#   prot         integral         4     'h0          
#   lock         integral         1     'h0          
#   resp         hresp_e          1     HRESP_OKAY   
#   num_beats    integral         32    'd1          
#   idle_cycles  integral         32    'd0          
#   addr_q       da(integral)     0     -            
#   wdata_q      da(integral)     1     -            
#     [0]        integral         32    'h3ae5ca23   
#   rdata_q      da(integral)     0     -            
#   resp_q       array(hresp_e)   1     -            
#     [0]        hresp_e          1     HRESP_OKAY   
#   htrans       htrans_e         2     HTRANS_NONSEQ
#   trans        htrans_e         2     HTRANS_NONSEQ
#   beat_addr    da(integral)     1     -            
#     [0]        integral         10    'h4c         
#   beat_wdata   da(integral)     1     -            
#     [0]        integral         32    'h3ae5ca23   
#   beat_rdata   da(integral)     0     -            
#   beat_resp    array(hresp_e)   1     -            
#     [0]        hresp_e          1     HRESP_OKAY   
#   beat_index   integral         32    'd0          
# ---------------------------------------------------
# 
# UVM_INFO ./../regmodel/eth_reg2ahb_adapter.sv(46) @ 265000: reporter [eth_reg2ahb_adapter] bus2reg: address = 0x4c, data = 0x3ae5ca23, kind = UVM_WRITE, status = UVM_IS_OK
# UVM_INFO /home/venus/QuestaSim/uvm-1.2/src/reg/uvm_reg_predictor.svh(218) @ 265000: uvm_test_top.env.ahb_predictor [REG_PREDICT] Observed WRITE transaction to register regmodel.TX_DATA: value='h3ae5ca23 : updated value = 'h3ae5ca23
# UVM_INFO ./../vip/ahb_vip/ahb_driver.sv(47) @ 265000: uvm_test_top.env.ahb_agt.driver [run_phase] Completed WRITE transaction at addr 0x4c and data: 0x3ae5ca23
# UVM_INFO ./../regmodel/eth_reg2ahb_adapter.sv(46) @ 265000: reporter [eth_reg2ahb_adapter] bus2reg: address = 0x4c, data = 0x3ae5ca23, kind = UVM_WRITE, status = UVM_IS_OK
# UVM_INFO @ 265000: reporter [RegModel] Wrote register via map regmodel.ahb_map: regmodel.TX_DATA=0x3ae5ca23
# UVM_INFO ./../regmodel/eth_reg2ahb_adapter.sv(31) @ 265000: reporter [eth_reg2ahb_adapter] reg2bus: address = 0x4c, data = 0xf97b2d5b, kind = WRITE
# UVM_INFO ./../vip/ahb_vip/ahb_driver.sv(28) @ 265000: uvm_test_top.env.ahb_agt.driver [run_phase] Start WRITE transaction - ADRRESS: 0x4c
# UVM_INFO ./../vip/ahb_vip/ahb_monitor.sv(135) @ 285000: uvm_test_top.env.ahb_agt.monitor [ahb_monitor] Send trans from monitor to scoreboard: 
# ---------------------------------------------------
# Name           Type             Size  Value        
# ---------------------------------------------------
# trans          ahb_transaction  -     @1358        
#   xact_type    xact_type_enum   1     WRITE        
#   xfer_size    hsize_e          3     HSIZE_WORD   
#   burst_type   hburst_e         3     HBURST_SINGLE
#   addr         integral         10    'h4c         
#   data         integral         32    'hf97b2d5b   
#   write        integral         1     1            
#   wdata        integral         32    'hf97b2d5b   
#   rdata        integral         32    'h0          
#   size         hsize_e          3     HSIZE_WORD   
#   burst        hburst_e         3     HBURST_SINGLE
#   prot         integral         4     'h0          
#   lock         integral         1     'h0          
#   resp         hresp_e          1     HRESP_OKAY   
#   num_beats    integral         32    'd1          
#   idle_cycles  integral         32    'd0          
#   addr_q       da(integral)     0     -            
#   wdata_q      da(integral)     1     -            
#     [0]        integral         32    'hf97b2d5b   
#   rdata_q      da(integral)     0     -            
#   resp_q       array(hresp_e)   1     -            
#     [0]        hresp_e          1     HRESP_OKAY   
#   htrans       htrans_e         2     HTRANS_NONSEQ
#   trans        htrans_e         2     HTRANS_NONSEQ
#   beat_addr    da(integral)     1     -            
#     [0]        integral         10    'h4c         
#   beat_wdata   da(integral)     1     -            
#     [0]        integral         32    'hf97b2d5b   
#   beat_rdata   da(integral)     0     -            
#   beat_resp    array(hresp_e)   1     -            
#     [0]        hresp_e          1     HRESP_OKAY   
#   beat_index   integral         32    'd0          
# ---------------------------------------------------
# 
# UVM_INFO ./../regmodel/eth_reg2ahb_adapter.sv(46) @ 285000: reporter [eth_reg2ahb_adapter] bus2reg: address = 0x4c, data = 0xf97b2d5b, kind = UVM_WRITE, status = UVM_IS_OK
# UVM_INFO /home/venus/QuestaSim/uvm-1.2/src/reg/uvm_reg_predictor.svh(218) @ 285000: uvm_test_top.env.ahb_predictor [REG_PREDICT] Observed WRITE transaction to register regmodel.TX_DATA: value='hf97b2d5b : updated value = 'hf97b2d5b
# UVM_INFO ./../vip/ahb_vip/ahb_driver.sv(47) @ 285000: uvm_test_top.env.ahb_agt.driver [run_phase] Completed WRITE transaction at addr 0x4c and data: 0xf97b2d5b
# UVM_INFO ./../regmodel/eth_reg2ahb_adapter.sv(46) @ 285000: reporter [eth_reg2ahb_adapter] bus2reg: address = 0x4c, data = 0xf97b2d5b, kind = UVM_WRITE, status = UVM_IS_OK
# UVM_INFO @ 285000: reporter [RegModel] Wrote register via map regmodel.ahb_map: regmodel.TX_DATA=0xf97b2d5b
# UVM_INFO ./../regmodel/eth_reg2ahb_adapter.sv(31) @ 285000: reporter [eth_reg2ahb_adapter] reg2bus: address = 0x4c, data = 0x415652f9, kind = WRITE
# UVM_INFO ./../vip/ahb_vip/ahb_driver.sv(28) @ 285000: uvm_test_top.env.ahb_agt.driver [run_phase] Start WRITE transaction - ADRRESS: 0x4c
# UVM_INFO ./../vip/ahb_vip/ahb_monitor.sv(135) @ 305000: uvm_test_top.env.ahb_agt.monitor [ahb_monitor] Send trans from monitor to scoreboard: 
# ---------------------------------------------------
# Name           Type             Size  Value        
# ---------------------------------------------------
# trans          ahb_transaction  -     @1400        
#   xact_type    xact_type_enum   1     WRITE        
#   xfer_size    hsize_e          3     HSIZE_WORD   
#   burst_type   hburst_e         3     HBURST_SINGLE
#   addr         integral         10    'h4c         
#   data         integral         32    'h415652f9   
#   write        integral         1     1            
#   wdata        integral         32    'h415652f9   
#   rdata        integral         32    'h0          
#   size         hsize_e          3     HSIZE_WORD   
#   burst        hburst_e         3     HBURST_SINGLE
#   prot         integral         4     'h0          
#   lock         integral         1     'h0          
#   resp         hresp_e          1     HRESP_OKAY   
#   num_beats    integral         32    'd1          
#   idle_cycles  integral         32    'd0          
#   addr_q       da(integral)     0     -            
#   wdata_q      da(integral)     1     -            
#     [0]        integral         32    'h415652f9   
#   rdata_q      da(integral)     0     -            
#   resp_q       array(hresp_e)   1     -            
#     [0]        hresp_e          1     HRESP_OKAY   
#   htrans       htrans_e         2     HTRANS_NONSEQ
#   trans        htrans_e         2     HTRANS_NONSEQ
#   beat_addr    da(integral)     1     -            
#     [0]        integral         10    'h4c         
#   beat_wdata   da(integral)     1     -            
#     [0]        integral         32    'h415652f9   
#   beat_rdata   da(integral)     0     -            
#   beat_resp    array(hresp_e)   1     -            
#     [0]        hresp_e          1     HRESP_OKAY   
#   beat_index   integral         32    'd0          
# ---------------------------------------------------
# 
# UVM_INFO ./../regmodel/eth_reg2ahb_adapter.sv(46) @ 305000: reporter [eth_reg2ahb_adapter] bus2reg: address = 0x4c, data = 0x415652f9, kind = UVM_WRITE, status = UVM_IS_OK
# UVM_INFO /home/venus/QuestaSim/uvm-1.2/src/reg/uvm_reg_predictor.svh(218) @ 305000: uvm_test_top.env.ahb_predictor [REG_PREDICT] Observed WRITE transaction to register regmodel.TX_DATA: value='h415652f9 : updated value = 'h415652f9
# UVM_INFO ./../vip/ahb_vip/ahb_driver.sv(47) @ 305000: uvm_test_top.env.ahb_agt.driver [run_phase] Completed WRITE transaction at addr 0x4c and data: 0x415652f9
# UVM_INFO ./../regmodel/eth_reg2ahb_adapter.sv(46) @ 305000: reporter [eth_reg2ahb_adapter] bus2reg: address = 0x4c, data = 0x415652f9, kind = UVM_WRITE, status = UVM_IS_OK
# UVM_INFO @ 305000: reporter [RegModel] Wrote register via map regmodel.ahb_map: regmodel.TX_DATA=0x415652f9
# UVM_INFO ./../regmodel/eth_reg2ahb_adapter.sv(31) @ 305000: reporter [eth_reg2ahb_adapter] reg2bus: address = 0x4c, data = 0xcac56821, kind = WRITE
# UVM_INFO ./../vip/ahb_vip/ahb_driver.sv(28) @ 305000: uvm_test_top.env.ahb_agt.driver [run_phase] Start WRITE transaction - ADRRESS: 0x4c
# UVM_INFO ./../vip/ahb_vip/ahb_monitor.sv(135) @ 325000: uvm_test_top.env.ahb_agt.monitor [ahb_monitor] Send trans from monitor to scoreboard: 
# ---------------------------------------------------
# Name           Type             Size  Value        
# ---------------------------------------------------
# trans          ahb_transaction  -     @1442        
#   xact_type    xact_type_enum   1     WRITE        
#   xfer_size    hsize_e          3     HSIZE_WORD   
#   burst_type   hburst_e         3     HBURST_SINGLE
#   addr         integral         10    'h4c         
#   data         integral         32    'hcac56821   
#   write        integral         1     1            
#   wdata        integral         32    'hcac56821   
#   rdata        integral         32    'h0          
#   size         hsize_e          3     HSIZE_WORD   
#   burst        hburst_e         3     HBURST_SINGLE
#   prot         integral         4     'h0          
#   lock         integral         1     'h0          
#   resp         hresp_e          1     HRESP_OKAY   
#   num_beats    integral         32    'd1          
#   idle_cycles  integral         32    'd0          
#   addr_q       da(integral)     0     -            
#   wdata_q      da(integral)     1     -            
#     [0]        integral         32    'hcac56821   
#   rdata_q      da(integral)     0     -            
#   resp_q       array(hresp_e)   1     -            
#     [0]        hresp_e          1     HRESP_OKAY   
#   htrans       htrans_e         2     HTRANS_NONSEQ
#   trans        htrans_e         2     HTRANS_NONSEQ
#   beat_addr    da(integral)     1     -            
#     [0]        integral         10    'h4c         
#   beat_wdata   da(integral)     1     -            
#     [0]        integral         32    'hcac56821   
#   beat_rdata   da(integral)     0     -            
#   beat_resp    array(hresp_e)   1     -            
#     [0]        hresp_e          1     HRESP_OKAY   
#   beat_index   integral         32    'd0          
# ---------------------------------------------------
# 
# UVM_INFO ./../regmodel/eth_reg2ahb_adapter.sv(46) @ 325000: reporter [eth_reg2ahb_adapter] bus2reg: address = 0x4c, data = 0xcac56821, kind = UVM_WRITE, status = UVM_IS_OK
# UVM_INFO /home/venus/QuestaSim/uvm-1.2/src/reg/uvm_reg_predictor.svh(218) @ 325000: uvm_test_top.env.ahb_predictor [REG_PREDICT] Observed WRITE transaction to register regmodel.TX_DATA: value='hcac56821 : updated value = 'hcac56821
# UVM_INFO ./../vip/ahb_vip/ahb_driver.sv(47) @ 325000: uvm_test_top.env.ahb_agt.driver [run_phase] Completed WRITE transaction at addr 0x4c and data: 0xcac56821
# UVM_INFO ./../regmodel/eth_reg2ahb_adapter.sv(46) @ 325000: reporter [eth_reg2ahb_adapter] bus2reg: address = 0x4c, data = 0xcac56821, kind = UVM_WRITE, status = UVM_IS_OK
# UVM_INFO @ 325000: reporter [RegModel] Wrote register via map regmodel.ahb_map: regmodel.TX_DATA=0xcac56821
# UVM_INFO ./../regmodel/eth_reg2ahb_adapter.sv(31) @ 325000: reporter [eth_reg2ahb_adapter] reg2bus: address = 0x4c, data = 0x282ae4f8, kind = WRITE
# UVM_INFO ./../vip/ahb_vip/ahb_driver.sv(28) @ 325000: uvm_test_top.env.ahb_agt.driver [run_phase] Start WRITE transaction - ADRRESS: 0x4c
# UVM_INFO ./../vip/ahb_vip/ahb_monitor.sv(135) @ 345000: uvm_test_top.env.ahb_agt.monitor [ahb_monitor] Send trans from monitor to scoreboard: 
# ---------------------------------------------------
# Name           Type             Size  Value        
# ---------------------------------------------------
# trans          ahb_transaction  -     @1484        
#   xact_type    xact_type_enum   1     WRITE        
#   xfer_size    hsize_e          3     HSIZE_WORD   
#   burst_type   hburst_e         3     HBURST_SINGLE
#   addr         integral         10    'h4c         
#   data         integral         32    'h282ae4f8   
#   write        integral         1     1            
#   wdata        integral         32    'h282ae4f8   
#   rdata        integral         32    'h0          
#   size         hsize_e          3     HSIZE_WORD   
#   burst        hburst_e         3     HBURST_SINGLE
#   prot         integral         4     'h0          
#   lock         integral         1     'h0          
#   resp         hresp_e          1     HRESP_OKAY   
#   num_beats    integral         32    'd1          
#   idle_cycles  integral         32    'd0          
#   addr_q       da(integral)     0     -            
#   wdata_q      da(integral)     1     -            
#     [0]        integral         32    'h282ae4f8   
#   rdata_q      da(integral)     0     -            
#   resp_q       array(hresp_e)   1     -            
#     [0]        hresp_e          1     HRESP_OKAY   
#   htrans       htrans_e         2     HTRANS_NONSEQ
#   trans        htrans_e         2     HTRANS_NONSEQ
#   beat_addr    da(integral)     1     -            
#     [0]        integral         10    'h4c         
#   beat_wdata   da(integral)     1     -            
#     [0]        integral         32    'h282ae4f8   
#   beat_rdata   da(integral)     0     -            
#   beat_resp    array(hresp_e)   1     -            
#     [0]        hresp_e          1     HRESP_OKAY   
#   beat_index   integral         32    'd0          
# ---------------------------------------------------
# 
# UVM_INFO ./../regmodel/eth_reg2ahb_adapter.sv(46) @ 345000: reporter [eth_reg2ahb_adapter] bus2reg: address = 0x4c, data = 0x282ae4f8, kind = UVM_WRITE, status = UVM_IS_OK
# UVM_INFO /home/venus/QuestaSim/uvm-1.2/src/reg/uvm_reg_predictor.svh(218) @ 345000: uvm_test_top.env.ahb_predictor [REG_PREDICT] Observed WRITE transaction to register regmodel.TX_DATA: value='h282ae4f8 : updated value = 'h282ae4f8
# UVM_INFO ./../vip/ahb_vip/ahb_driver.sv(47) @ 345000: uvm_test_top.env.ahb_agt.driver [run_phase] Completed WRITE transaction at addr 0x4c and data: 0x282ae4f8
# UVM_INFO ./../regmodel/eth_reg2ahb_adapter.sv(46) @ 345000: reporter [eth_reg2ahb_adapter] bus2reg: address = 0x4c, data = 0x282ae4f8, kind = UVM_WRITE, status = UVM_IS_OK
# UVM_INFO @ 345000: reporter [RegModel] Wrote register via map regmodel.ahb_map: regmodel.TX_DATA=0x282ae4f8
# UVM_INFO ./../regmodel/eth_reg2ahb_adapter.sv(31) @ 345000: reporter [eth_reg2ahb_adapter] reg2bus: address = 0x4c, data = 0x263ad4b0, kind = WRITE
# UVM_INFO ./../vip/ahb_vip/ahb_driver.sv(28) @ 345000: uvm_test_top.env.ahb_agt.driver [run_phase] Start WRITE transaction - ADRRESS: 0x4c
# UVM_INFO ./../vip/ahb_vip/ahb_monitor.sv(135) @ 365000: uvm_test_top.env.ahb_agt.monitor [ahb_monitor] Send trans from monitor to scoreboard: 
# ---------------------------------------------------
# Name           Type             Size  Value        
# ---------------------------------------------------
# trans          ahb_transaction  -     @1526        
#   xact_type    xact_type_enum   1     WRITE        
#   xfer_size    hsize_e          3     HSIZE_WORD   
#   burst_type   hburst_e         3     HBURST_SINGLE
#   addr         integral         10    'h4c         
#   data         integral         32    'h263ad4b0   
#   write        integral         1     1            
#   wdata        integral         32    'h263ad4b0   
#   rdata        integral         32    'h0          
#   size         hsize_e          3     HSIZE_WORD   
#   burst        hburst_e         3     HBURST_SINGLE
#   prot         integral         4     'h0          
#   lock         integral         1     'h0          
#   resp         hresp_e          1     HRESP_OKAY   
#   num_beats    integral         32    'd1          
#   idle_cycles  integral         32    'd0          
#   addr_q       da(integral)     0     -            
#   wdata_q      da(integral)     1     -            
#     [0]        integral         32    'h263ad4b0   
#   rdata_q      da(integral)     0     -            
#   resp_q       array(hresp_e)   1     -            
#     [0]        hresp_e          1     HRESP_OKAY   
#   htrans       htrans_e         2     HTRANS_NONSEQ
#   trans        htrans_e         2     HTRANS_NONSEQ
#   beat_addr    da(integral)     1     -            
#     [0]        integral         10    'h4c         
#   beat_wdata   da(integral)     1     -            
#     [0]        integral         32    'h263ad4b0   
#   beat_rdata   da(integral)     0     -            
#   beat_resp    array(hresp_e)   1     -            
#     [0]        hresp_e          1     HRESP_OKAY   
#   beat_index   integral         32    'd0          
# ---------------------------------------------------
# 
# UVM_INFO ./../regmodel/eth_reg2ahb_adapter.sv(46) @ 365000: reporter [eth_reg2ahb_adapter] bus2reg: address = 0x4c, data = 0x263ad4b0, kind = UVM_WRITE, status = UVM_IS_OK
# UVM_INFO /home/venus/QuestaSim/uvm-1.2/src/reg/uvm_reg_predictor.svh(218) @ 365000: uvm_test_top.env.ahb_predictor [REG_PREDICT] Observed WRITE transaction to register regmodel.TX_DATA: value='h263ad4b0 : updated value = 'h263ad4b0
# UVM_INFO ./../vip/ahb_vip/ahb_driver.sv(47) @ 365000: uvm_test_top.env.ahb_agt.driver [run_phase] Completed WRITE transaction at addr 0x4c and data: 0x263ad4b0
# UVM_INFO ./../regmodel/eth_reg2ahb_adapter.sv(46) @ 365000: reporter [eth_reg2ahb_adapter] bus2reg: address = 0x4c, data = 0x263ad4b0, kind = UVM_WRITE, status = UVM_IS_OK
# UVM_INFO @ 365000: reporter [RegModel] Wrote register via map regmodel.ahb_map: regmodel.TX_DATA=0x263ad4b0
# UVM_INFO ./../regmodel/eth_reg2ahb_adapter.sv(31) @ 365000: reporter [eth_reg2ahb_adapter] reg2bus: address = 0x4c, data = 0x544dbcb7, kind = WRITE
# UVM_INFO ./../vip/ahb_vip/ahb_driver.sv(28) @ 365000: uvm_test_top.env.ahb_agt.driver [run_phase] Start WRITE transaction - ADRRESS: 0x4c
# UVM_INFO ./../vip/ahb_vip/ahb_monitor.sv(135) @ 385000: uvm_test_top.env.ahb_agt.monitor [ahb_monitor] Send trans from monitor to scoreboard: 
# ---------------------------------------------------
# Name           Type             Size  Value        
# ---------------------------------------------------
# trans          ahb_transaction  -     @1568        
#   xact_type    xact_type_enum   1     WRITE        
#   xfer_size    hsize_e          3     HSIZE_WORD   
#   burst_type   hburst_e         3     HBURST_SINGLE
#   addr         integral         10    'h4c         
#   data         integral         32    'h544dbcb7   
#   write        integral         1     1            
#   wdata        integral         32    'h544dbcb7   
#   rdata        integral         32    'h0          
#   size         hsize_e          3     HSIZE_WORD   
#   burst        hburst_e         3     HBURST_SINGLE
#   prot         integral         4     'h0          
#   lock         integral         1     'h0          
#   resp         hresp_e          1     HRESP_OKAY   
#   num_beats    integral         32    'd1          
#   idle_cycles  integral         32    'd0          
#   addr_q       da(integral)     0     -            
#   wdata_q      da(integral)     1     -            
#     [0]        integral         32    'h544dbcb7   
#   rdata_q      da(integral)     0     -            
#   resp_q       array(hresp_e)   1     -            
#     [0]        hresp_e          1     HRESP_OKAY   
#   htrans       htrans_e         2     HTRANS_NONSEQ
#   trans        htrans_e         2     HTRANS_NONSEQ
#   beat_addr    da(integral)     1     -            
#     [0]        integral         10    'h4c         
#   beat_wdata   da(integral)     1     -            
#     [0]        integral         32    'h544dbcb7   
#   beat_rdata   da(integral)     0     -            
#   beat_resp    array(hresp_e)   1     -            
#     [0]        hresp_e          1     HRESP_OKAY   
#   beat_index   integral         32    'd0          
# ---------------------------------------------------
# 
# UVM_INFO ./../regmodel/eth_reg2ahb_adapter.sv(46) @ 385000: reporter [eth_reg2ahb_adapter] bus2reg: address = 0x4c, data = 0x544dbcb7, kind = UVM_WRITE, status = UVM_IS_OK
# UVM_INFO /home/venus/QuestaSim/uvm-1.2/src/reg/uvm_reg_predictor.svh(218) @ 385000: uvm_test_top.env.ahb_predictor [REG_PREDICT] Observed WRITE transaction to register regmodel.TX_DATA: value='h544dbcb7 : updated value = 'h544dbcb7
# UVM_INFO ./../vip/ahb_vip/ahb_driver.sv(47) @ 385000: uvm_test_top.env.ahb_agt.driver [run_phase] Completed WRITE transaction at addr 0x4c and data: 0x544dbcb7
# UVM_INFO ./../regmodel/eth_reg2ahb_adapter.sv(46) @ 385000: reporter [eth_reg2ahb_adapter] bus2reg: address = 0x4c, data = 0x544dbcb7, kind = UVM_WRITE, status = UVM_IS_OK
# UVM_INFO @ 385000: reporter [RegModel] Wrote register via map regmodel.ahb_map: regmodel.TX_DATA=0x544dbcb7
# UVM_INFO ./../regmodel/eth_reg2ahb_adapter.sv(31) @ 385000: reporter [eth_reg2ahb_adapter] reg2bus: address = 0x4c, data = 0x5687928e, kind = WRITE
# UVM_INFO ./../vip/ahb_vip/ahb_driver.sv(28) @ 385000: uvm_test_top.env.ahb_agt.driver [run_phase] Start WRITE transaction - ADRRESS: 0x4c
# UVM_INFO ./../vip/ahb_vip/ahb_monitor.sv(135) @ 405000: uvm_test_top.env.ahb_agt.monitor [ahb_monitor] Send trans from monitor to scoreboard: 
# ---------------------------------------------------
# Name           Type             Size  Value        
# ---------------------------------------------------
# trans          ahb_transaction  -     @1610        
#   xact_type    xact_type_enum   1     WRITE        
#   xfer_size    hsize_e          3     HSIZE_WORD   
#   burst_type   hburst_e         3     HBURST_SINGLE
#   addr         integral         10    'h4c         
#   data         integral         32    'h5687928e   
#   write        integral         1     1            
#   wdata        integral         32    'h5687928e   
#   rdata        integral         32    'h0          
#   size         hsize_e          3     HSIZE_WORD   
#   burst        hburst_e         3     HBURST_SINGLE
#   prot         integral         4     'h0          
#   lock         integral         1     'h0          
#   resp         hresp_e          1     HRESP_OKAY   
#   num_beats    integral         32    'd1          
#   idle_cycles  integral         32    'd0          
#   addr_q       da(integral)     0     -            
#   wdata_q      da(integral)     1     -            
#     [0]        integral         32    'h5687928e   
#   rdata_q      da(integral)     0     -            
#   resp_q       array(hresp_e)   1     -            
#     [0]        hresp_e          1     HRESP_OKAY   
#   htrans       htrans_e         2     HTRANS_NONSEQ
#   trans        htrans_e         2     HTRANS_NONSEQ
#   beat_addr    da(integral)     1     -            
#     [0]        integral         10    'h4c         
#   beat_wdata   da(integral)     1     -            
#     [0]        integral         32    'h5687928e   
#   beat_rdata   da(integral)     0     -            
#   beat_resp    array(hresp_e)   1     -            
#     [0]        hresp_e          1     HRESP_OKAY   
#   beat_index   integral         32    'd0          
# ---------------------------------------------------
# 
# UVM_INFO ./../regmodel/eth_reg2ahb_adapter.sv(46) @ 405000: reporter [eth_reg2ahb_adapter] bus2reg: address = 0x4c, data = 0x5687928e, kind = UVM_WRITE, status = UVM_IS_OK
# UVM_INFO /home/venus/QuestaSim/uvm-1.2/src/reg/uvm_reg_predictor.svh(218) @ 405000: uvm_test_top.env.ahb_predictor [REG_PREDICT] Observed WRITE transaction to register regmodel.TX_DATA: value='h5687928e : updated value = 'h5687928e
# UVM_INFO ./../vip/ahb_vip/ahb_driver.sv(47) @ 405000: uvm_test_top.env.ahb_agt.driver [run_phase] Completed WRITE transaction at addr 0x4c and data: 0x5687928e
# UVM_INFO ./../regmodel/eth_reg2ahb_adapter.sv(46) @ 405000: reporter [eth_reg2ahb_adapter] bus2reg: address = 0x4c, data = 0x5687928e, kind = UVM_WRITE, status = UVM_IS_OK
# UVM_INFO @ 405000: reporter [RegModel] Wrote register via map regmodel.ahb_map: regmodel.TX_DATA=0x5687928e
# UVM_INFO ./../regmodel/eth_reg2ahb_adapter.sv(31) @ 405000: reporter [eth_reg2ahb_adapter] reg2bus: address = 0x4c, data = 0x6e91508c, kind = WRITE
# UVM_INFO ./../vip/ahb_vip/ahb_driver.sv(28) @ 405000: uvm_test_top.env.ahb_agt.driver [run_phase] Start WRITE transaction - ADRRESS: 0x4c
# UVM_INFO ./../vip/ahb_vip/ahb_monitor.sv(135) @ 425000: uvm_test_top.env.ahb_agt.monitor [ahb_monitor] Send trans from monitor to scoreboard: 
# ---------------------------------------------------
# Name           Type             Size  Value        
# ---------------------------------------------------
# trans          ahb_transaction  -     @1652        
#   xact_type    xact_type_enum   1     WRITE        
#   xfer_size    hsize_e          3     HSIZE_WORD   
#   burst_type   hburst_e         3     HBURST_SINGLE
#   addr         integral         10    'h4c         
#   data         integral         32    'h6e91508c   
#   write        integral         1     1            
#   wdata        integral         32    'h6e91508c   
#   rdata        integral         32    'h0          
#   size         hsize_e          3     HSIZE_WORD   
#   burst        hburst_e         3     HBURST_SINGLE
#   prot         integral         4     'h0          
#   lock         integral         1     'h0          
#   resp         hresp_e          1     HRESP_OKAY   
#   num_beats    integral         32    'd1          
#   idle_cycles  integral         32    'd0          
#   addr_q       da(integral)     0     -            
#   wdata_q      da(integral)     1     -            
#     [0]        integral         32    'h6e91508c   
#   rdata_q      da(integral)     0     -            
#   resp_q       array(hresp_e)   1     -            
#     [0]        hresp_e          1     HRESP_OKAY   
#   htrans       htrans_e         2     HTRANS_NONSEQ
#   trans        htrans_e         2     HTRANS_NONSEQ
#   beat_addr    da(integral)     1     -            
#     [0]        integral         10    'h4c         
#   beat_wdata   da(integral)     1     -            
#     [0]        integral         32    'h6e91508c   
#   beat_rdata   da(integral)     0     -            
#   beat_resp    array(hresp_e)   1     -            
#     [0]        hresp_e          1     HRESP_OKAY   
#   beat_index   integral         32    'd0          
# ---------------------------------------------------
# 
# UVM_INFO ./../regmodel/eth_reg2ahb_adapter.sv(46) @ 425000: reporter [eth_reg2ahb_adapter] bus2reg: address = 0x4c, data = 0x6e91508c, kind = UVM_WRITE, status = UVM_IS_OK
# UVM_INFO /home/venus/QuestaSim/uvm-1.2/src/reg/uvm_reg_predictor.svh(218) @ 425000: uvm_test_top.env.ahb_predictor [REG_PREDICT] Observed WRITE transaction to register regmodel.TX_DATA: value='h6e91508c : updated value = 'h6e91508c
# UVM_INFO ./../vip/ahb_vip/ahb_driver.sv(47) @ 425000: uvm_test_top.env.ahb_agt.driver [run_phase] Completed WRITE transaction at addr 0x4c and data: 0x6e91508c
# UVM_INFO ./../regmodel/eth_reg2ahb_adapter.sv(46) @ 425000: reporter [eth_reg2ahb_adapter] bus2reg: address = 0x4c, data = 0x6e91508c, kind = UVM_WRITE, status = UVM_IS_OK
# UVM_INFO @ 425000: reporter [RegModel] Wrote register via map regmodel.ahb_map: regmodel.TX_DATA=0x6e91508c
# UVM_INFO ./../regmodel/eth_reg2ahb_adapter.sv(31) @ 425000: reporter [eth_reg2ahb_adapter] reg2bus: address = 0x4c, data = 0x63215899, kind = WRITE
# UVM_INFO ./../vip/ahb_vip/ahb_driver.sv(28) @ 425000: uvm_test_top.env.ahb_agt.driver [run_phase] Start WRITE transaction - ADRRESS: 0x4c
# UVM_INFO ./../vip/ahb_vip/ahb_monitor.sv(135) @ 445000: uvm_test_top.env.ahb_agt.monitor [ahb_monitor] Send trans from monitor to scoreboard: 
# ---------------------------------------------------
# Name           Type             Size  Value        
# ---------------------------------------------------
# trans          ahb_transaction  -     @1694        
#   xact_type    xact_type_enum   1     WRITE        
#   xfer_size    hsize_e          3     HSIZE_WORD   
#   burst_type   hburst_e         3     HBURST_SINGLE
#   addr         integral         10    'h4c         
#   data         integral         32    'h63215899   
#   write        integral         1     1            
#   wdata        integral         32    'h63215899   
#   rdata        integral         32    'h0          
#   size         hsize_e          3     HSIZE_WORD   
#   burst        hburst_e         3     HBURST_SINGLE
#   prot         integral         4     'h0          
#   lock         integral         1     'h0          
#   resp         hresp_e          1     HRESP_OKAY   
#   num_beats    integral         32    'd1          
#   idle_cycles  integral         32    'd0          
#   addr_q       da(integral)     0     -            
#   wdata_q      da(integral)     1     -            
#     [0]        integral         32    'h63215899   
#   rdata_q      da(integral)     0     -            
#   resp_q       array(hresp_e)   1     -            
#     [0]        hresp_e          1     HRESP_OKAY   
#   htrans       htrans_e         2     HTRANS_NONSEQ
#   trans        htrans_e         2     HTRANS_NONSEQ
#   beat_addr    da(integral)     1     -            
#     [0]        integral         10    'h4c         
#   beat_wdata   da(integral)     1     -            
#     [0]        integral         32    'h63215899   
#   beat_rdata   da(integral)     0     -            
#   beat_resp    array(hresp_e)   1     -            
#     [0]        hresp_e          1     HRESP_OKAY   
#   beat_index   integral         32    'd0          
# ---------------------------------------------------
# 
# UVM_INFO ./../regmodel/eth_reg2ahb_adapter.sv(46) @ 445000: reporter [eth_reg2ahb_adapter] bus2reg: address = 0x4c, data = 0x63215899, kind = UVM_WRITE, status = UVM_IS_OK
# UVM_INFO /home/venus/QuestaSim/uvm-1.2/src/reg/uvm_reg_predictor.svh(218) @ 445000: uvm_test_top.env.ahb_predictor [REG_PREDICT] Observed WRITE transaction to register regmodel.TX_DATA: value='h63215899 : updated value = 'h63215899
# UVM_INFO ./../vip/ahb_vip/ahb_driver.sv(47) @ 445000: uvm_test_top.env.ahb_agt.driver [run_phase] Completed WRITE transaction at addr 0x4c and data: 0x63215899
# UVM_INFO ./../regmodel/eth_reg2ahb_adapter.sv(46) @ 445000: reporter [eth_reg2ahb_adapter] bus2reg: address = 0x4c, data = 0x63215899, kind = UVM_WRITE, status = UVM_IS_OK
# UVM_INFO @ 445000: reporter [RegModel] Wrote register via map regmodel.ahb_map: regmodel.TX_DATA=0x63215899
# UVM_INFO ./../regmodel/eth_reg2ahb_adapter.sv(31) @ 445000: reporter [eth_reg2ahb_adapter] reg2bus: address = 0x4c, data = 0x3f47d4a9, kind = WRITE
# UVM_INFO ./../vip/ahb_vip/ahb_driver.sv(28) @ 445000: uvm_test_top.env.ahb_agt.driver [run_phase] Start WRITE transaction - ADRRESS: 0x4c
# UVM_INFO ./../vip/ahb_vip/ahb_monitor.sv(135) @ 465000: uvm_test_top.env.ahb_agt.monitor [ahb_monitor] Send trans from monitor to scoreboard: 
# ---------------------------------------------------
# Name           Type             Size  Value        
# ---------------------------------------------------
# trans          ahb_transaction  -     @1736        
#   xact_type    xact_type_enum   1     WRITE        
#   xfer_size    hsize_e          3     HSIZE_WORD   
#   burst_type   hburst_e         3     HBURST_SINGLE
#   addr         integral         10    'h4c         
#   data         integral         32    'h3f47d4a9   
#   write        integral         1     1            
#   wdata        integral         32    'h3f47d4a9   
#   rdata        integral         32    'h0          
#   size         hsize_e          3     HSIZE_WORD   
#   burst        hburst_e         3     HBURST_SINGLE
#   prot         integral         4     'h0          
#   lock         integral         1     'h0          
#   resp         hresp_e          1     HRESP_OKAY   
#   num_beats    integral         32    'd1          
#   idle_cycles  integral         32    'd0          
#   addr_q       da(integral)     0     -            
#   wdata_q      da(integral)     1     -            
#     [0]        integral         32    'h3f47d4a9   
#   rdata_q      da(integral)     0     -            
#   resp_q       array(hresp_e)   1     -            
#     [0]        hresp_e          1     HRESP_OKAY   
#   htrans       htrans_e         2     HTRANS_NONSEQ
#   trans        htrans_e         2     HTRANS_NONSEQ
#   beat_addr    da(integral)     1     -            
#     [0]        integral         10    'h4c         
#   beat_wdata   da(integral)     1     -            
#     [0]        integral         32    'h3f47d4a9   
#   beat_rdata   da(integral)     0     -            
#   beat_resp    array(hresp_e)   1     -            
#     [0]        hresp_e          1     HRESP_OKAY   
#   beat_index   integral         32    'd0          
# ---------------------------------------------------
# 
# UVM_INFO ./../regmodel/eth_reg2ahb_adapter.sv(46) @ 465000: reporter [eth_reg2ahb_adapter] bus2reg: address = 0x4c, data = 0x3f47d4a9, kind = UVM_WRITE, status = UVM_IS_OK
# UVM_INFO /home/venus/QuestaSim/uvm-1.2/src/reg/uvm_reg_predictor.svh(218) @ 465000: uvm_test_top.env.ahb_predictor [REG_PREDICT] Observed WRITE transaction to register regmodel.TX_DATA: value='h3f47d4a9 : updated value = 'h3f47d4a9
# UVM_INFO ./../vip/ahb_vip/ahb_driver.sv(47) @ 465000: uvm_test_top.env.ahb_agt.driver [run_phase] Completed WRITE transaction at addr 0x4c and data: 0x3f47d4a9
# UVM_INFO ./../regmodel/eth_reg2ahb_adapter.sv(46) @ 465000: reporter [eth_reg2ahb_adapter] bus2reg: address = 0x4c, data = 0x3f47d4a9, kind = UVM_WRITE, status = UVM_IS_OK
# UVM_INFO @ 465000: reporter [RegModel] Wrote register via map regmodel.ahb_map: regmodel.TX_DATA=0x3f47d4a9
# UVM_INFO ./../regmodel/eth_reg2ahb_adapter.sv(31) @ 465000: reporter [eth_reg2ahb_adapter] reg2bus: address = 0x4c, data = 0xd56e2e4e, kind = WRITE
# UVM_INFO ./../vip/ahb_vip/ahb_driver.sv(28) @ 465000: uvm_test_top.env.ahb_agt.driver [run_phase] Start WRITE transaction - ADRRESS: 0x4c
# UVM_INFO ./../vip/ahb_vip/ahb_monitor.sv(135) @ 485000: uvm_test_top.env.ahb_agt.monitor [ahb_monitor] Send trans from monitor to scoreboard: 
# ---------------------------------------------------
# Name           Type             Size  Value        
# ---------------------------------------------------
# trans          ahb_transaction  -     @1778        
#   xact_type    xact_type_enum   1     WRITE        
#   xfer_size    hsize_e          3     HSIZE_WORD   
#   burst_type   hburst_e         3     HBURST_SINGLE
#   addr         integral         10    'h4c         
#   data         integral         32    'hd56e2e4e   
#   write        integral         1     1            
#   wdata        integral         32    'hd56e2e4e   
#   rdata        integral         32    'h0          
#   size         hsize_e          3     HSIZE_WORD   
#   burst        hburst_e         3     HBURST_SINGLE
#   prot         integral         4     'h0          
#   lock         integral         1     'h0          
#   resp         hresp_e          1     HRESP_OKAY   
#   num_beats    integral         32    'd1          
#   idle_cycles  integral         32    'd0          
#   addr_q       da(integral)     0     -            
#   wdata_q      da(integral)     1     -            
#     [0]        integral         32    'hd56e2e4e   
#   rdata_q      da(integral)     0     -            
#   resp_q       array(hresp_e)   1     -            
#     [0]        hresp_e          1     HRESP_OKAY   
#   htrans       htrans_e         2     HTRANS_NONSEQ
#   trans        htrans_e         2     HTRANS_NONSEQ
#   beat_addr    da(integral)     1     -            
#     [0]        integral         10    'h4c         
#   beat_wdata   da(integral)     1     -            
#     [0]        integral         32    'hd56e2e4e   
#   beat_rdata   da(integral)     0     -            
#   beat_resp    array(hresp_e)   1     -            
#     [0]        hresp_e          1     HRESP_OKAY   
#   beat_index   integral         32    'd0          
# ---------------------------------------------------
# 
# UVM_INFO ./../regmodel/eth_reg2ahb_adapter.sv(46) @ 485000: reporter [eth_reg2ahb_adapter] bus2reg: address = 0x4c, data = 0xd56e2e4e, kind = UVM_WRITE, status = UVM_IS_OK
# UVM_INFO /home/venus/QuestaSim/uvm-1.2/src/reg/uvm_reg_predictor.svh(218) @ 485000: uvm_test_top.env.ahb_predictor [REG_PREDICT] Observed WRITE transaction to register regmodel.TX_DATA: value='hd56e2e4e : updated value = 'hd56e2e4e
# UVM_INFO ./../vip/ahb_vip/ahb_driver.sv(47) @ 485000: uvm_test_top.env.ahb_agt.driver [run_phase] Completed WRITE transaction at addr 0x4c and data: 0xd56e2e4e
# UVM_INFO ./../regmodel/eth_reg2ahb_adapter.sv(46) @ 485000: reporter [eth_reg2ahb_adapter] bus2reg: address = 0x4c, data = 0xd56e2e4e, kind = UVM_WRITE, status = UVM_IS_OK
# UVM_INFO @ 485000: reporter [RegModel] Wrote register via map regmodel.ahb_map: regmodel.TX_DATA=0xd56e2e4e
# UVM_INFO ./../regmodel/eth_reg2ahb_adapter.sv(31) @ 485000: reporter [eth_reg2ahb_adapter] reg2bus: address = 0x4c, data = 0x34c24aff, kind = WRITE
# UVM_INFO ./../vip/ahb_vip/ahb_driver.sv(28) @ 485000: uvm_test_top.env.ahb_agt.driver [run_phase] Start WRITE transaction - ADRRESS: 0x4c
# UVM_INFO ./../vip/ahb_vip/ahb_monitor.sv(135) @ 505000: uvm_test_top.env.ahb_agt.monitor [ahb_monitor] Send trans from monitor to scoreboard: 
# ---------------------------------------------------
# Name           Type             Size  Value        
# ---------------------------------------------------
# trans          ahb_transaction  -     @1820        
#   xact_type    xact_type_enum   1     WRITE        
#   xfer_size    hsize_e          3     HSIZE_WORD   
#   burst_type   hburst_e         3     HBURST_SINGLE
#   addr         integral         10    'h4c         
#   data         integral         32    'h34c24aff   
#   write        integral         1     1            
#   wdata        integral         32    'h34c24aff   
#   rdata        integral         32    'h0          
#   size         hsize_e          3     HSIZE_WORD   
#   burst        hburst_e         3     HBURST_SINGLE
#   prot         integral         4     'h0          
#   lock         integral         1     'h0          
#   resp         hresp_e          1     HRESP_OKAY   
#   num_beats    integral         32    'd1          
#   idle_cycles  integral         32    'd0          
#   addr_q       da(integral)     0     -            
#   wdata_q      da(integral)     1     -            
#     [0]        integral         32    'h34c24aff   
#   rdata_q      da(integral)     0     -            
#   resp_q       array(hresp_e)   1     -            
#     [0]        hresp_e          1     HRESP_OKAY   
#   htrans       htrans_e         2     HTRANS_NONSEQ
#   trans        htrans_e         2     HTRANS_NONSEQ
#   beat_addr    da(integral)     1     -            
#     [0]        integral         10    'h4c         
#   beat_wdata   da(integral)     1     -            
#     [0]        integral         32    'h34c24aff   
#   beat_rdata   da(integral)     0     -            
#   beat_resp    array(hresp_e)   1     -            
#     [0]        hresp_e          1     HRESP_OKAY   
#   beat_index   integral         32    'd0          
# ---------------------------------------------------
# 
# UVM_INFO ./../regmodel/eth_reg2ahb_adapter.sv(46) @ 505000: reporter [eth_reg2ahb_adapter] bus2reg: address = 0x4c, data = 0x34c24aff, kind = UVM_WRITE, status = UVM_IS_OK
# UVM_INFO /home/venus/QuestaSim/uvm-1.2/src/reg/uvm_reg_predictor.svh(218) @ 505000: uvm_test_top.env.ahb_predictor [REG_PREDICT] Observed WRITE transaction to register regmodel.TX_DATA: value='h34c24aff : updated value = 'h34c24aff
# UVM_INFO ./../vip/ahb_vip/ahb_driver.sv(47) @ 505000: uvm_test_top.env.ahb_agt.driver [run_phase] Completed WRITE transaction at addr 0x4c and data: 0x34c24aff
# UVM_INFO ./../regmodel/eth_reg2ahb_adapter.sv(46) @ 505000: reporter [eth_reg2ahb_adapter] bus2reg: address = 0x4c, data = 0x34c24aff, kind = UVM_WRITE, status = UVM_IS_OK
# UVM_INFO @ 505000: reporter [RegModel] Wrote register via map regmodel.ahb_map: regmodel.TX_DATA=0x34c24aff
# UVM_INFO ./../regmodel/eth_reg2ahb_adapter.sv(31) @ 505000: reporter [eth_reg2ahb_adapter] reg2bus: address = 0x4c, data = 0xb3460e26, kind = WRITE
# UVM_INFO ./../vip/ahb_vip/ahb_driver.sv(28) @ 505000: uvm_test_top.env.ahb_agt.driver [run_phase] Start WRITE transaction - ADRRESS: 0x4c
# UVM_INFO ./../vip/ahb_vip/ahb_monitor.sv(135) @ 525000: uvm_test_top.env.ahb_agt.monitor [ahb_monitor] Send trans from monitor to scoreboard: 
# ---------------------------------------------------
# Name           Type             Size  Value        
# ---------------------------------------------------
# trans          ahb_transaction  -     @1862        
#   xact_type    xact_type_enum   1     WRITE        
#   xfer_size    hsize_e          3     HSIZE_WORD   
#   burst_type   hburst_e         3     HBURST_SINGLE
#   addr         integral         10    'h4c         
#   data         integral         32    'hb3460e26   
#   write        integral         1     1            
#   wdata        integral         32    'hb3460e26   
#   rdata        integral         32    'h0          
#   size         hsize_e          3     HSIZE_WORD   
#   burst        hburst_e         3     HBURST_SINGLE
#   prot         integral         4     'h0          
#   lock         integral         1     'h0          
#   resp         hresp_e          1     HRESP_OKAY   
#   num_beats    integral         32    'd1          
#   idle_cycles  integral         32    'd0          
#   addr_q       da(integral)     0     -            
#   wdata_q      da(integral)     1     -            
#     [0]        integral         32    'hb3460e26   
#   rdata_q      da(integral)     0     -            
#   resp_q       array(hresp_e)   1     -            
#     [0]        hresp_e          1     HRESP_OKAY   
#   htrans       htrans_e         2     HTRANS_NONSEQ
#   trans        htrans_e         2     HTRANS_NONSEQ
#   beat_addr    da(integral)     1     -            
#     [0]        integral         10    'h4c         
#   beat_wdata   da(integral)     1     -            
#     [0]        integral         32    'hb3460e26   
#   beat_rdata   da(integral)     0     -            
#   beat_resp    array(hresp_e)   1     -            
#     [0]        hresp_e          1     HRESP_OKAY   
#   beat_index   integral         32    'd0          
# ---------------------------------------------------
# 
# UVM_INFO ./../regmodel/eth_reg2ahb_adapter.sv(46) @ 525000: reporter [eth_reg2ahb_adapter] bus2reg: address = 0x4c, data = 0xb3460e26, kind = UVM_WRITE, status = UVM_IS_OK
# UVM_INFO /home/venus/QuestaSim/uvm-1.2/src/reg/uvm_reg_predictor.svh(218) @ 525000: uvm_test_top.env.ahb_predictor [REG_PREDICT] Observed WRITE transaction to register regmodel.TX_DATA: value='hb3460e26 : updated value = 'hb3460e26
# UVM_INFO ./../vip/ahb_vip/ahb_driver.sv(47) @ 525000: uvm_test_top.env.ahb_agt.driver [run_phase] Completed WRITE transaction at addr 0x4c and data: 0xb3460e26
# UVM_INFO ./../regmodel/eth_reg2ahb_adapter.sv(46) @ 525000: reporter [eth_reg2ahb_adapter] bus2reg: address = 0x4c, data = 0xb3460e26, kind = UVM_WRITE, status = UVM_IS_OK
# UVM_INFO @ 525000: reporter [RegModel] Wrote register via map regmodel.ahb_map: regmodel.TX_DATA=0xb3460e26
# UVM_INFO ./../regmodel/eth_reg2ahb_adapter.sv(31) @ 525000: reporter [eth_reg2ahb_adapter] reg2bus: address = 0x4c, data = 0x252fa0ba, kind = WRITE
# UVM_INFO ./../vip/ahb_vip/ahb_driver.sv(28) @ 525000: uvm_test_top.env.ahb_agt.driver [run_phase] Start WRITE transaction - ADRRESS: 0x4c
# UVM_INFO ./../vip/ahb_vip/ahb_monitor.sv(135) @ 545000: uvm_test_top.env.ahb_agt.monitor [ahb_monitor] Send trans from monitor to scoreboard: 
# ---------------------------------------------------
# Name           Type             Size  Value        
# ---------------------------------------------------
# trans          ahb_transaction  -     @1904        
#   xact_type    xact_type_enum   1     WRITE        
#   xfer_size    hsize_e          3     HSIZE_WORD   
#   burst_type   hburst_e         3     HBURST_SINGLE
#   addr         integral         10    'h4c         
#   data         integral         32    'h252fa0ba   
#   write        integral         1     1            
#   wdata        integral         32    'h252fa0ba   
#   rdata        integral         32    'h0          
#   size         hsize_e          3     HSIZE_WORD   
#   burst        hburst_e         3     HBURST_SINGLE
#   prot         integral         4     'h0          
#   lock         integral         1     'h0          
#   resp         hresp_e          1     HRESP_OKAY   
#   num_beats    integral         32    'd1          
#   idle_cycles  integral         32    'd0          
#   addr_q       da(integral)     0     -            
#   wdata_q      da(integral)     1     -            
#     [0]        integral         32    'h252fa0ba   
#   rdata_q      da(integral)     0     -            
#   resp_q       array(hresp_e)   1     -            
#     [0]        hresp_e          1     HRESP_OKAY   
#   htrans       htrans_e         2     HTRANS_NONSEQ
#   trans        htrans_e         2     HTRANS_NONSEQ
#   beat_addr    da(integral)     1     -            
#     [0]        integral         10    'h4c         
#   beat_wdata   da(integral)     1     -            
#     [0]        integral         32    'h252fa0ba   
#   beat_rdata   da(integral)     0     -            
#   beat_resp    array(hresp_e)   1     -            
#     [0]        hresp_e          1     HRESP_OKAY   
#   beat_index   integral         32    'd0          
# ---------------------------------------------------
# 
# UVM_INFO ./../regmodel/eth_reg2ahb_adapter.sv(46) @ 545000: reporter [eth_reg2ahb_adapter] bus2reg: address = 0x4c, data = 0x252fa0ba, kind = UVM_WRITE, status = UVM_IS_OK
# UVM_INFO /home/venus/QuestaSim/uvm-1.2/src/reg/uvm_reg_predictor.svh(218) @ 545000: uvm_test_top.env.ahb_predictor [REG_PREDICT] Observed WRITE transaction to register regmodel.TX_DATA: value='h252fa0ba : updated value = 'h252fa0ba
# UVM_INFO ./../vip/ahb_vip/ahb_driver.sv(47) @ 545000: uvm_test_top.env.ahb_agt.driver [run_phase] Completed WRITE transaction at addr 0x4c and data: 0x252fa0ba
# UVM_INFO ./../regmodel/eth_reg2ahb_adapter.sv(46) @ 545000: reporter [eth_reg2ahb_adapter] bus2reg: address = 0x4c, data = 0x252fa0ba, kind = UVM_WRITE, status = UVM_IS_OK
# UVM_INFO @ 545000: reporter [RegModel] Wrote register via map regmodel.ahb_map: regmodel.TX_DATA=0x252fa0ba
# UVM_INFO ./../regmodel/eth_reg2ahb_adapter.sv(31) @ 545000: reporter [eth_reg2ahb_adapter] reg2bus: address = 0x4c, data = 0xfaaad2ec, kind = WRITE
# UVM_INFO ./../vip/ahb_vip/ahb_driver.sv(28) @ 545000: uvm_test_top.env.ahb_agt.driver [run_phase] Start WRITE transaction - ADRRESS: 0x4c
# UVM_INFO ./../vip/ahb_vip/ahb_monitor.sv(135) @ 565000: uvm_test_top.env.ahb_agt.monitor [ahb_monitor] Send trans from monitor to scoreboard: 
# ---------------------------------------------------
# Name           Type             Size  Value        
# ---------------------------------------------------
# trans          ahb_transaction  -     @1946        
#   xact_type    xact_type_enum   1     WRITE        
#   xfer_size    hsize_e          3     HSIZE_WORD   
#   burst_type   hburst_e         3     HBURST_SINGLE
#   addr         integral         10    'h4c         
#   data         integral         32    'hfaaad2ec   
#   write        integral         1     1            
#   wdata        integral         32    'hfaaad2ec   
#   rdata        integral         32    'h0          
#   size         hsize_e          3     HSIZE_WORD   
#   burst        hburst_e         3     HBURST_SINGLE
#   prot         integral         4     'h0          
#   lock         integral         1     'h0          
#   resp         hresp_e          1     HRESP_OKAY   
#   num_beats    integral         32    'd1          
#   idle_cycles  integral         32    'd0          
#   addr_q       da(integral)     0     -            
#   wdata_q      da(integral)     1     -            
#     [0]        integral         32    'hfaaad2ec   
#   rdata_q      da(integral)     0     -            
#   resp_q       array(hresp_e)   1     -            
#     [0]        hresp_e          1     HRESP_OKAY   
#   htrans       htrans_e         2     HTRANS_NONSEQ
#   trans        htrans_e         2     HTRANS_NONSEQ
#   beat_addr    da(integral)     1     -            
#     [0]        integral         10    'h4c         
#   beat_wdata   da(integral)     1     -            
#     [0]        integral         32    'hfaaad2ec   
#   beat_rdata   da(integral)     0     -            
#   beat_resp    array(hresp_e)   1     -            
#     [0]        hresp_e          1     HRESP_OKAY   
#   beat_index   integral         32    'd0          
# ---------------------------------------------------
# 
# UVM_INFO ./../regmodel/eth_reg2ahb_adapter.sv(46) @ 565000: reporter [eth_reg2ahb_adapter] bus2reg: address = 0x4c, data = 0xfaaad2ec, kind = UVM_WRITE, status = UVM_IS_OK
# UVM_INFO /home/venus/QuestaSim/uvm-1.2/src/reg/uvm_reg_predictor.svh(218) @ 565000: uvm_test_top.env.ahb_predictor [REG_PREDICT] Observed WRITE transaction to register regmodel.TX_DATA: value='hfaaad2ec : updated value = 'hfaaad2ec
# UVM_INFO ./../vip/ahb_vip/ahb_driver.sv(47) @ 565000: uvm_test_top.env.ahb_agt.driver [run_phase] Completed WRITE transaction at addr 0x4c and data: 0xfaaad2ec
# UVM_INFO ./../regmodel/eth_reg2ahb_adapter.sv(46) @ 565000: reporter [eth_reg2ahb_adapter] bus2reg: address = 0x4c, data = 0xfaaad2ec, kind = UVM_WRITE, status = UVM_IS_OK
# UVM_INFO @ 565000: reporter [RegModel] Wrote register via map regmodel.ahb_map: regmodel.TX_DATA=0xfaaad2ec
# UVM_INFO ./../regmodel/eth_reg2ahb_adapter.sv(31) @ 565000: reporter [eth_reg2ahb_adapter] reg2bus: address = 0x4c, data = 0xd719f29c, kind = WRITE
# UVM_INFO ./../vip/ahb_vip/ahb_driver.sv(28) @ 565000: uvm_test_top.env.ahb_agt.driver [run_phase] Start WRITE transaction - ADRRESS: 0x4c
# UVM_INFO ./../vip/ahb_vip/ahb_monitor.sv(135) @ 585000: uvm_test_top.env.ahb_agt.monitor [ahb_monitor] Send trans from monitor to scoreboard: 
# ---------------------------------------------------
# Name           Type             Size  Value        
# ---------------------------------------------------
# trans          ahb_transaction  -     @1988        
#   xact_type    xact_type_enum   1     WRITE        
#   xfer_size    hsize_e          3     HSIZE_WORD   
#   burst_type   hburst_e         3     HBURST_SINGLE
#   addr         integral         10    'h4c         
#   data         integral         32    'hd719f29c   
#   write        integral         1     1            
#   wdata        integral         32    'hd719f29c   
#   rdata        integral         32    'h0          
#   size         hsize_e          3     HSIZE_WORD   
#   burst        hburst_e         3     HBURST_SINGLE
#   prot         integral         4     'h0          
#   lock         integral         1     'h0          
#   resp         hresp_e          1     HRESP_OKAY   
#   num_beats    integral         32    'd1          
#   idle_cycles  integral         32    'd0          
#   addr_q       da(integral)     0     -            
#   wdata_q      da(integral)     1     -            
#     [0]        integral         32    'hd719f29c   
#   rdata_q      da(integral)     0     -            
#   resp_q       array(hresp_e)   1     -            
#     [0]        hresp_e          1     HRESP_OKAY   
#   htrans       htrans_e         2     HTRANS_NONSEQ
#   trans        htrans_e         2     HTRANS_NONSEQ
#   beat_addr    da(integral)     1     -            
#     [0]        integral         10    'h4c         
#   beat_wdata   da(integral)     1     -            
#     [0]        integral         32    'hd719f29c   
#   beat_rdata   da(integral)     0     -            
#   beat_resp    array(hresp_e)   1     -            
#     [0]        hresp_e          1     HRESP_OKAY   
#   beat_index   integral         32    'd0          
# ---------------------------------------------------
# 
# UVM_INFO ./../regmodel/eth_reg2ahb_adapter.sv(46) @ 585000: reporter [eth_reg2ahb_adapter] bus2reg: address = 0x4c, data = 0xd719f29c, kind = UVM_WRITE, status = UVM_IS_OK
# UVM_INFO /home/venus/QuestaSim/uvm-1.2/src/reg/uvm_reg_predictor.svh(218) @ 585000: uvm_test_top.env.ahb_predictor [REG_PREDICT] Observed WRITE transaction to register regmodel.TX_DATA: value='hd719f29c : updated value = 'hd719f29c
# UVM_INFO ./../vip/ahb_vip/ahb_driver.sv(47) @ 585000: uvm_test_top.env.ahb_agt.driver [run_phase] Completed WRITE transaction at addr 0x4c and data: 0xd719f29c
# UVM_INFO ./../regmodel/eth_reg2ahb_adapter.sv(46) @ 585000: reporter [eth_reg2ahb_adapter] bus2reg: address = 0x4c, data = 0xd719f29c, kind = UVM_WRITE, status = UVM_IS_OK
# UVM_INFO @ 585000: reporter [RegModel] Wrote register via map regmodel.ahb_map: regmodel.TX_DATA=0xd719f29c
# UVM_INFO ./../regmodel/eth_reg2ahb_adapter.sv(31) @ 585000: reporter [eth_reg2ahb_adapter] reg2bus: address = 0x4c, data = 0xbf861501, kind = WRITE
# UVM_INFO ./../vip/ahb_vip/ahb_driver.sv(28) @ 585000: uvm_test_top.env.ahb_agt.driver [run_phase] Start WRITE transaction - ADRRESS: 0x4c
# UVM_INFO ./../vip/ahb_vip/ahb_monitor.sv(135) @ 605000: uvm_test_top.env.ahb_agt.monitor [ahb_monitor] Send trans from monitor to scoreboard: 
# ---------------------------------------------------
# Name           Type             Size  Value        
# ---------------------------------------------------
# trans          ahb_transaction  -     @2030        
#   xact_type    xact_type_enum   1     WRITE        
#   xfer_size    hsize_e          3     HSIZE_WORD   
#   burst_type   hburst_e         3     HBURST_SINGLE
#   addr         integral         10    'h4c         
#   data         integral         32    'hbf861501   
#   write        integral         1     1            
#   wdata        integral         32    'hbf861501   
#   rdata        integral         32    'h0          
#   size         hsize_e          3     HSIZE_WORD   
#   burst        hburst_e         3     HBURST_SINGLE
#   prot         integral         4     'h0          
#   lock         integral         1     'h0          
#   resp         hresp_e          1     HRESP_OKAY   
#   num_beats    integral         32    'd1          
#   idle_cycles  integral         32    'd0          
#   addr_q       da(integral)     0     -            
#   wdata_q      da(integral)     1     -            
#     [0]        integral         32    'hbf861501   
#   rdata_q      da(integral)     0     -            
#   resp_q       array(hresp_e)   1     -            
#     [0]        hresp_e          1     HRESP_OKAY   
#   htrans       htrans_e         2     HTRANS_NONSEQ
#   trans        htrans_e         2     HTRANS_NONSEQ
#   beat_addr    da(integral)     1     -            
#     [0]        integral         10    'h4c         
#   beat_wdata   da(integral)     1     -            
#     [0]        integral         32    'hbf861501   
#   beat_rdata   da(integral)     0     -            
#   beat_resp    array(hresp_e)   1     -            
#     [0]        hresp_e          1     HRESP_OKAY   
#   beat_index   integral         32    'd0          
# ---------------------------------------------------
# 
# UVM_INFO ./../regmodel/eth_reg2ahb_adapter.sv(46) @ 605000: reporter [eth_reg2ahb_adapter] bus2reg: address = 0x4c, data = 0xbf861501, kind = UVM_WRITE, status = UVM_IS_OK
# UVM_INFO /home/venus/QuestaSim/uvm-1.2/src/reg/uvm_reg_predictor.svh(218) @ 605000: uvm_test_top.env.ahb_predictor [REG_PREDICT] Observed WRITE transaction to register regmodel.TX_DATA: value='hbf861501 : updated value = 'hbf861501
# UVM_INFO ./../vip/ahb_vip/ahb_driver.sv(47) @ 605000: uvm_test_top.env.ahb_agt.driver [run_phase] Completed WRITE transaction at addr 0x4c and data: 0xbf861501
# UVM_INFO ./../regmodel/eth_reg2ahb_adapter.sv(46) @ 605000: reporter [eth_reg2ahb_adapter] bus2reg: address = 0x4c, data = 0xbf861501, kind = UVM_WRITE, status = UVM_IS_OK
# UVM_INFO @ 605000: reporter [RegModel] Wrote register via map regmodel.ahb_map: regmodel.TX_DATA=0xbf861501
# UVM_INFO ./../regmodel/eth_reg2ahb_adapter.sv(31) @ 605000: reporter [eth_reg2ahb_adapter] reg2bus: address = 0x4c, data = 0xfbcdfdbb, kind = WRITE
# UVM_INFO ./../vip/ahb_vip/ahb_driver.sv(28) @ 605000: uvm_test_top.env.ahb_agt.driver [run_phase] Start WRITE transaction - ADRRESS: 0x4c
# UVM_INFO ./../vip/ahb_vip/ahb_monitor.sv(135) @ 625000: uvm_test_top.env.ahb_agt.monitor [ahb_monitor] Send trans from monitor to scoreboard: 
# ---------------------------------------------------
# Name           Type             Size  Value        
# ---------------------------------------------------
# trans          ahb_transaction  -     @2072        
#   xact_type    xact_type_enum   1     WRITE        
#   xfer_size    hsize_e          3     HSIZE_WORD   
#   burst_type   hburst_e         3     HBURST_SINGLE
#   addr         integral         10    'h4c         
#   data         integral         32    'hfbcdfdbb   
#   write        integral         1     1            
#   wdata        integral         32    'hfbcdfdbb   
#   rdata        integral         32    'h0          
#   size         hsize_e          3     HSIZE_WORD   
#   burst        hburst_e         3     HBURST_SINGLE
#   prot         integral         4     'h0          
#   lock         integral         1     'h0          
#   resp         hresp_e          1     HRESP_OKAY   
#   num_beats    integral         32    'd1          
#   idle_cycles  integral         32    'd0          
#   addr_q       da(integral)     0     -            
#   wdata_q      da(integral)     1     -            
#     [0]        integral         32    'hfbcdfdbb   
#   rdata_q      da(integral)     0     -            
#   resp_q       array(hresp_e)   1     -            
#     [0]        hresp_e          1     HRESP_OKAY   
#   htrans       htrans_e         2     HTRANS_NONSEQ
#   trans        htrans_e         2     HTRANS_NONSEQ
#   beat_addr    da(integral)     1     -            
#     [0]        integral         10    'h4c         
#   beat_wdata   da(integral)     1     -            
#     [0]        integral         32    'hfbcdfdbb   
#   beat_rdata   da(integral)     0     -            
#   beat_resp    array(hresp_e)   1     -            
#     [0]        hresp_e          1     HRESP_OKAY   
#   beat_index   integral         32    'd0          
# ---------------------------------------------------
# 
# UVM_INFO ./../regmodel/eth_reg2ahb_adapter.sv(46) @ 625000: reporter [eth_reg2ahb_adapter] bus2reg: address = 0x4c, data = 0xfbcdfdbb, kind = UVM_WRITE, status = UVM_IS_OK
# UVM_INFO /home/venus/QuestaSim/uvm-1.2/src/reg/uvm_reg_predictor.svh(218) @ 625000: uvm_test_top.env.ahb_predictor [REG_PREDICT] Observed WRITE transaction to register regmodel.TX_DATA: value='hfbcdfdbb : updated value = 'hfbcdfdbb
# UVM_INFO ./../vip/ahb_vip/ahb_driver.sv(47) @ 625000: uvm_test_top.env.ahb_agt.driver [run_phase] Completed WRITE transaction at addr 0x4c and data: 0xfbcdfdbb
